;$FILEVERSION=2.0
;$STARTTIME=44231.8712351968
;$COLUMNS=N,O,T,I,d,l,D
;
;   C:\Users\Park\Desktop\trace_4.trc
;   Start time: 2021-02-04 20:54:34.721.0
;   Generated by PCAN-View v4.2.4.564
;-------------------------------------------------------------------------------
;   Connection                 Bit rate
;   PCANLight_USB_16@pcan_usb  500 kBit/s
;-------------------------------------------------------------------------------
;   Message   Time    Type ID     Rx/Tx
;   Number    Offset  |    [hex]  |  Data Length
;   |         [ms]    |    |      |  |  Data [hex] ...
;   |         |       |    |      |  |  |
;---+-- ------+------ +- --+----- +- +- +- +- -- -- -- -- -- -- --
      1    197522.462 DT     076D Rx 4  9E 80 00 80 
      2    197522.705 DT     076E Rx 8  C2 3F 03 FF 7F FF 7F 0F 
      3    197522.873 DT     076F Rx 4  E5 7F 00 80 
      4    197523.023 DT     0728 Rx 3  01 1C 00 
      5    197600.899 DT     0000 Tx 8  00 00 00 00 00 00 00 00 
      6    197600.901 DT     0000 Tx 8  00 00 00 00 00 00 00 00 
      7    197600.902 DT     0000 Tx 8  00 00 00 00 00 00 00 00 
      8    197600.902 DT     0000 Tx 8  00 00 00 00 00 00 00 00 
      9    197600.903 DT     0000 Tx 8  00 00 00 00 00 00 00 00 
     10    197600.903 DT     0000 Tx 8  00 00 00 00 00 00 00 00 
     11    197600.904 DT     0001 Tx 8  00 00 00 00 00 00 00 00 
     12    197600.904 DT     0001 Tx 8  00 00 00 00 00 00 00 00 
     13    197600.905 DT     0001 Tx 8  00 00 00 00 00 00 00 00 
     14    197600.905 DT     0123 Tx 8  11 00 00 00 00 00 00 00 
     15    197600.906 DT     0123 Tx 8  11 00 00 00 00 00 00 00 
     16    197600.906 DT     0123 Tx 8  11 00 00 00 00 00 00 00 
     17    197616.967 DT     0700 Rx 8  10 00 00 01 01 00 00 00 
     18    197617.215 DT     0760 Rx 8  00 AE 04 00 00 00 00 00 
     19    197617.463 DT     0727 Rx 8  FE 00 FE 00 FE 00 FE 00 
     20    197617.687 DT     0703 Rx 7  80 FF D5 FF ED FF FF 
     21    197617.934 DT     0400 Rx 8  28 07 49 02 00 00 08 00 
     22    197618.166 DT     0401 Rx 8  45 05 05 21 0A 05 5A 06 
     23    197618.406 DT     0402 Rx 8  0F 00 0F 00 06 10 04 03 
     24    197618.656 DT     0403 Rx 8  4F 00 FF 03 00 00 00 00 
     25    197618.908 DT     0410 Rx 8  B2 F8 03 00 00 00 00 00 
     26    197619.149 DT     0411 Rx 8  00 51 CB 5B 00 00 00 00 
     27    197619.393 DT     0412 Rx 8  02 0A 02 06 05 03 00 00 
     28    197619.637 DT     0669 Rx 8  20 60 FB 00 00 03 A0 05 
     29    197619.873 DT     0650 Rx 8  40 80 00 00 40 9C C2 B6 
     30    197620.113 DT     0737 Rx 8  50 00 8A 20 FF 7F 3F 7B 
     31    197620.318 DT     0738 Rx 6  03 60 00 F2 03 00 
     32    197620.556 DT     0739 Rx 8  18 2E 04 2A 00 F2 0F 81 
     33    197620.792 DT     073A Rx 8  3F 24 23 F0 FF 00 08 7F 
     34    197621.034 DT     073B Rx 8  21 FE F4 00 03 00 1B FF 
     35    197621.272 DT     073C Rx 8  14 16 06 EF 02 B5 00 8B 
     36    197621.507 DT     073D Rx 8  3F 21 36 F2 FF 00 08 7F 
     37    197621.747 DT     073E Rx 8  46 FC 74 FD D4 03 E3 03 
     38    197621.981 DT     073F Rx 8  19 2A 07 0B 03 1B 01 83 
     39    197622.223 DT     0740 Rx 8  3F 2C 1D F0 FF 00 08 7F 
     40    197622.471 DT     0741 Rx 8  EB FD A0 FC 00 00 F9 02 
     41    197622.704 DT     0766 Rx 8  C2 87 FE C3 7E 6C 81 00 
     42    197622.868 DT     0767 Rx 4  B7 7F 00 80 
     43    197623.100 DT     0768 Rx 8  F0 CE 01 6E 8D DD 8C 0F 
     44    197623.264 DT     0769 Rx 4  C5 7F 0E 8F 
     45    197623.511 DT     076A Rx 8  FF 7F 00 00 00 00 00 00 
     46    197623.757 DT     076B Rx 8  02 00 00 00 00 00 00 00 
     47    197623.995 DT     076C Rx 8  C1 AF FC 11 75 FF 7F 2C 
     48    197624.161 DT     076D Rx 4  A7 80 00 80 
     49    197624.403 DT     076E Rx 8  C2 3F 03 FF 7F FF 7F 0F 
     50    197624.568 DT     076F Rx 4  E5 7F 00 80 
     51    197624.718 DT     0728 Rx 3  01 1C 00 
     52    197718.237 DT     0700 Rx 8  10 00 00 01 01 00 00 00 
     53    197718.483 DT     0760 Rx 8  00 AE 05 00 00 00 00 00 
     54    197718.727 DT     0727 Rx 8  FE 00 FE 00 FE 00 FE 00 
     55    197718.951 DT     0703 Rx 7  80 FF F0 00 01 FF F6 
     56    197719.198 DT     0400 Rx 8  28 07 49 02 00 00 08 00 
     57    197719.430 DT     0401 Rx 8  45 05 05 21 0A 05 5A 06 
     58    197719.670 DT     0402 Rx 8  0F 00 0F 00 06 10 04 03 
     59    197719.912 DT     0403 Rx 8  4F 00 FF 03 00 00 00 00 
     60    197720.160 DT     0410 Rx 8  B2 F8 03 00 00 00 00 00 
     61    197720.401 DT     0411 Rx 8  00 51 CB 5B 00 00 00 00 
     62    197720.645 DT     0412 Rx 8  02 0A 02 06 05 03 00 00 
     63    197720.889 DT     0669 Rx 8  20 60 FB 00 00 03 A0 05 
     64    197721.127 DT     0650 Rx 8  40 80 00 00 40 99 69 7C 
     65    197721.361 DT     0737 Rx 8  50 00 8C 20 FF 7F CC 7A 
     66    197721.562 DT     0738 Rx 6  03 AA 00 F2 03 00 
     67    197721.798 DT     0739 Rx 8  18 2F 04 2B 00 EE 0F 81 
     68    197722.036 DT     073A Rx 8  3F 24 24 F0 FF 00 08 7F 
     69    197722.272 DT     073B Rx 8  C8 FD C3 00 03 00 17 FF 
     70    197722.513 DT     073C Rx 8  14 18 06 F0 02 A4 00 8B 
     71    197722.749 DT     073D Rx 8  3F 21 37 F2 FF 00 08 7F 
     72    197722.985 DT     073E Rx 8  7B FC 98 FD C3 03 DD 03 
     73    197723.225 DT     073F Rx 8  19 3E 07 0A 03 17 01 83 
     74    197723.465 DT     0740 Rx 8  3F 2C 1E F0 FF 00 08 7F 
     75    197723.706 DT     0741 Rx 8  97 FD A1 FC 00 00 F6 02 
     76    197723.938 DT     0766 Rx 8  C2 85 FE C3 7E 6C 81 00 
     77    197724.102 DT     0767 Rx 4  B7 7F 00 80 
     78    197724.330 DT     0768 Rx 8  F0 CC 01 62 8D 1A 8C 10 
     79    197724.492 DT     0769 Rx 4  C6 7F F3 8E 
     80    197724.739 DT     076A Rx 8  FF 7F 00 00 00 00 00 00 
     81    197724.985 DT     076B Rx 8  02 00 00 00 00 00 00 00 
     82    197725.219 DT     076C Rx 8  C2 AF FC 11 75 FF 7F 2C 
     83    197725.387 DT     076D Rx 4  A7 80 00 80 
     84    197725.629 DT     076E Rx 8  C2 3F 03 FF 7F FF 7F 0F 
     85    197725.796 DT     076F Rx 4  E5 7F 00 80 
     86    197725.946 DT     0728 Rx 3  01 1C 00 
     87    197823.018 DT     0700 Rx 8  10 00 00 01 01 00 00 00 
     88    197823.271 DT     0760 Rx 8  00 AE 05 00 00 00 00 00 
     89    197823.517 DT     0727 Rx 8  FE 00 FE 00 FE 00 FE 00 
     90    197823.741 DT     0703 Rx 7  80 FF F2 FF FA 00 11 
     91    197823.988 DT     0400 Rx 8  28 07 49 02 00 00 08 00 
     92    197824.221 DT     0401 Rx 8  45 05 05 21 0A 05 5A 06 
     93    197824.461 DT     0402 Rx 8  0F 00 0F 00 06 10 04 03 
     94    197824.711 DT     0403 Rx 8  4F 00 FF 03 00 00 00 00 
     95    197824.963 DT     0410 Rx 8  B2 F8 03 00 00 00 00 00 
     96    197825.207 DT     0411 Rx 8  00 51 CB 5B 00 00 00 00 
     97    197825.452 DT     0412 Rx 8  02 0A 02 06 05 03 00 00 
     98    197825.692 DT     0669 Rx 8  20 60 FB 00 00 03 90 05 
     99    197825.930 DT     0650 Rx 8  40 80 00 00 40 95 2D E4 
    100    197826.164 DT     0737 Rx 8  50 00 8D 20 FF 7F 3A 7A 
    101    197826.370 DT     0738 Rx 6  03 F4 00 F2 03 00 
    102    197826.625 DT     0739 Rx 8  18 2E 04 2C 00 ED 0F 81 
    103    197826.863 DT     073A Rx 8  3F 24 25 F0 FF 00 08 7F 
    104    197827.103 DT     073B Rx 8  DE FD 92 00 02 00 14 FF 
    105    197827.337 DT     073C Rx 8  14 22 06 F1 02 9E 00 8B 
    106    197827.573 DT     073D Rx 8  3F 21 38 F2 FF 00 08 7F 
    107    197827.810 DT     073E Rx 8  43 FB 8B FD BD 03 D5 03 
    108    197828.046 DT     073F Rx 8  19 52 07 08 03 19 01 83 
    109    197828.290 DT     0740 Rx 8  3F 2C 1F F0 FF 00 08 7F 
    110    197828.526 DT     0741 Rx 8  C1 FD 69 FC 01 00 F2 02 
    111    197828.764 DT     0766 Rx 8  C2 83 FE C4 7E 6C 81 00 
    112    197828.929 DT     0767 Rx 4  B6 7F 00 80 
    113    197829.199 DT     0768 Rx 8  F0 CA 01 7F 8D 89 8C 0E 
    114    197829.363 DT     0769 Rx 4  C6 7F AE 8E 
    115    197829.617 DT     076A Rx 8  FF 7F 00 00 00 00 00 00 
    116    197829.865 DT     076B Rx 8  02 00 00 00 00 00 00 00 
    117    197830.100 DT     076C Rx 8  C2 AF FC 11 75 FF 7F 2C 
    118    197830.266 DT     076D Rx 4  A7 80 00 80 
    119    197830.508 DT     076E Rx 8  C2 3F 03 FF 7F FF 7F 0F 
    120    197830.672 DT     076F Rx 4  E5 7F 00 80 
    121    197830.827 DT     0728 Rx 3  01 1C 00 
    122    197924.389 DT     0700 Rx 8  10 00 00 01 01 00 00 00 
    123    197924.636 DT     0760 Rx 8  00 AE 05 00 00 00 00 00 
    124    197924.876 DT     0727 Rx 8  FE 00 FE 00 FE 00 FE 00 
    125    197925.104 DT     0703 Rx 7  80 FF D0 00 25 00 03 
    126    197925.356 DT     0400 Rx 8  28 07 49 02 00 00 08 00 
    127    197925.588 DT     0401 Rx 8  45 05 05 21 0A 05 5A 06 
    128    197925.829 DT     0402 Rx 8  0F 00 0F 00 06 10 04 03 
    129    197926.071 DT     0403 Rx 8  4F 00 FF 03 00 00 00 00 
    130    197926.319 DT     0410 Rx 8  B2 F8 03 00 00 00 00 00 
    131    197926.559 DT     0411 Rx 8  00 51 CB 5B 00 00 00 00 
    132    197926.803 DT     0412 Rx 8  02 0A 02 06 05 03 00 00 
    133    197927.042 DT     0669 Rx 8  20 50 FB 00 00 03 90 05 
    134    197927.280 DT     0650 Rx 8  40 80 00 00 40 97 2A 4A 
    135    197927.516 DT     0737 Rx 8  50 00 8F 20 FF 7F 7E 7A 
    136    197927.718 DT     0738 Rx 6  03 89 00 F2 03 00 
    137    197927.952 DT     0739 Rx 8  18 30 04 2D 00 ED 0F 81 
    138    197928.189 DT     073A Rx 8  3F 24 26 F0 FF 00 08 7F 
    139    197928.425 DT     073B Rx 8  E2 FD 94 00 02 00 0D FF 
    140    197928.659 DT     073C Rx 8  14 3D 06 F0 02 97 00 8B 
    141    197928.895 DT     073D Rx 8  3F 21 39 F2 FF 00 08 7F 
    142    197929.131 DT     073E Rx 8  8C FC B0 FD B8 03 C9 03 
    143    197929.370 DT     073F Rx 8  19 7F 07 05 03 1A 01 80 
    144    197929.646 DT     0740 Rx 8  3F 2C 20 F0 FF 00 08 7F 
    145    197929.888 DT     0741 Rx 8  2B FE AF FC 01 00 EC 02 
    146    197930.120 DT     0766 Rx 8  C2 7F FE C5 7E 6C 81 00 
    147    197930.285 DT     0767 Rx 4  B5 7F 00 80 
    148    197930.515 DT     0768 Rx 8  F0 C6 01 8F 8D 7A 8C 0E 
    149    197930.675 DT     0769 Rx 4  C7 7F 78 8E 
    150    197930.921 DT     076A Rx 8  FF 7F 00 00 00 00 00 00 
    151    197931.167 DT     076B Rx 8  02 00 00 00 00 00 00 00 
    152    197931.401 DT     076C Rx 8  C2 AF FC 11 75 FF 7F 2C 
    153    197931.568 DT     076D Rx 4  A7 80 00 80 
    154    197931.812 DT     076E Rx 8  C2 3F 03 FF 7F FF 7F 0F 
    155    197931.976 DT     076F Rx 4  E5 7F 00 80 
    156    197932.128 DT     0728 Rx 3  01 1C 00 
    157    198036.951 DT     0700 Rx 8  10 00 00 01 01 00 00 00 
    158    198037.197 DT     0760 Rx 8  00 AE 05 00 00 00 00 00 
    159    198037.437 DT     0727 Rx 8  FE 00 FE 00 FE 00 FE 00 
    160    198037.671 DT     0703 Rx 7  80 FF CF 00 27 FF F0 
    161    198037.918 DT     0400 Rx 8  28 07 49 02 00 00 08 00 
    162    198038.150 DT     0401 Rx 8  45 05 05 21 0A 05 5A 06 
    163    198038.390 DT     0402 Rx 8  0F 00 0F 00 06 10 04 03 
    164    198038.632 DT     0403 Rx 8  4F 00 FF 03 00 00 00 00 
    165    198038.880 DT     0410 Rx 8  B2 F8 03 00 00 00 00 00 
    166    198039.121 DT     0411 Rx 8  00 51 CB 5B 00 00 00 00 
    167    198039.365 DT     0412 Rx 8  02 0A 02 06 05 03 00 00 
    168    198039.607 DT     0669 Rx 8  20 40 FB 00 00 03 80 05 
    169    198039.857 DT     0650 Rx 8  40 80 00 00 40 90 82 F8 
    170    198040.093 DT     0737 Rx 8  50 00 90 20 FF 7F 99 79 
    171    198040.294 DT     0738 Rx 6  03 D3 00 F2 03 00 
    172    198040.534 DT     0739 Rx 8  18 2F 04 2E 00 ED 0F 81 
    173    198040.772 DT     073A Rx 8  3F 24 27 F0 FF 00 08 7F 
    174    198041.008 DT     073B Rx 8  A7 FD 8E 00 02 00 09 FF 
    175    198041.244 DT     073C Rx 8  14 47 06 F0 02 93 00 8B 
    176    198041.481 DT     073D Rx 8  3F 21 3A F2 FF 00 08 7F 
    177    198041.715 DT     073E Rx 8  6C FC D7 FD B7 03 C3 03 
    178    198041.953 DT     073F Rx 8  19 91 07 03 03 1A 01 80 
    179    198042.195 DT     0740 Rx 8  3F 2C 21 F0 FF 00 08 7F 
    180    198042.432 DT     0741 Rx 8  D4 FD DF FC 01 00 E8 02 
    181    198042.666 DT     0766 Rx 8  C2 7D FE C5 7E 6C 81 00 
    182    198042.830 DT     0767 Rx 4  B5 7F 00 80 
    183    198043.058 DT     0768 Rx 8  F0 C4 01 AC 8D 0C 8D 0F 
    184    198043.218 DT     0769 Rx 4  C6 7F 4C 8E 
    185    198043.472 DT     076A Rx 8  FF 7F 00 00 00 00 00 00 
    186    198043.719 DT     076B Rx 8  02 00 00 00 00 00 00 00 
    187    198043.953 DT     076C Rx 8  C2 AF FC 11 75 FF 7F 2C 
    188    198044.119 DT     076D Rx 4  A7 80 00 80 
    189    198044.361 DT     076E Rx 8  C2 3F 03 FF 7F FF 7F 0F 
    190    198044.526 DT     076F Rx 4  E5 7F 00 80 
    191    198044.676 DT     0728 Rx 3  01 1C 00 
    192    198100.821 DT     0000 Tx 8  00 00 00 00 00 00 00 00 
    193    198100.822 DT     0000 Tx 8  00 00 00 00 00 00 00 00 
    194    198100.823 DT     0000 Tx 8  00 00 00 00 00 00 00 00 
    195    198100.823 DT     0000 Tx 8  00 00 00 00 00 00 00 00 
    196    198100.823 DT     0000 Tx 8  00 00 00 00 00 00 00 00 
    197    198100.824 DT     0000 Tx 8  00 00 00 00 00 00 00 00 
    198    198100.824 DT     0001 Tx 8  00 00 00 00 00 00 00 00 
    199    198100.824 DT     0001 Tx 8  00 00 00 00 00 00 00 00 
    200    198100.825 DT     0001 Tx 8  00 00 00 00 00 00 00 00 
    201    198100.825 DT     0123 Tx 8  11 00 00 00 00 00 00 00 
    202    198100.825 DT     0123 Tx 8  11 00 00 00 00 00 00 00 
    203    198100.825 DT     0123 Tx 8  11 00 00 00 00 00 00 00 
    204    198145.477 DT     0700 Rx 8  10 00 00 01 01 00 00 00 
    205    198145.723 DT     0760 Rx 8  00 AE 06 00 00 00 00 00 
    206    198145.972 DT     0727 Rx 8  FE 00 FE 00 FE 00 FE 00 
    207    198146.196 DT     0703 Rx 7  80 FF F5 00 24 00 09 
    208    198146.442 DT     0400 Rx 8  28 07 49 02 00 00 08 00 
    209    198146.674 DT     0401 Rx 8  45 05 05 21 0A 05 5A 06 
    210    198146.914 DT     0402 Rx 8  0F 00 0F 00 06 10 04 03 
    211    198147.163 DT     0403 Rx 8  4F 00 FF 03 00 00 00 00 
    212    198147.415 DT     0410 Rx 8  B2 F8 03 00 00 00 00 00 
    213    198147.659 DT     0411 Rx 8  00 51 CB 5B 00 00 00 00 
    214    198147.903 DT     0412 Rx 8  02 0A 02 06 05 03 00 00 
    215    198148.145 DT     0669 Rx 8  20 40 FB 00 00 03 80 05 
    216    198148.386 DT     0650 Rx 8  40 80 00 00 40 96 2D F2 
    217    198148.620 DT     0737 Rx 8  50 00 90 20 FF 7F 5C 7A 
    218    198148.820 DT     0738 Rx 6  03 1E 00 F2 03 00 
    219    198149.058 DT     0739 Rx 8  18 2B 04 2F 00 E6 0F 81 
    220    198149.296 DT     073A Rx 8  3F 25 28 F0 FF 00 08 7F 
    221    198149.539 DT     073B Rx 8  A2 FC 7E 00 00 00 03 FF 
    222    198149.775 DT     073C Rx 8  14 55 06 EF 02 8C 00 8B 
    223    198150.013 DT     073D Rx 8  3F 21 3B F2 FF 00 08 7F 
    224    198150.249 DT     073E Rx 8  3A FB 26 FE B9 03 BC 03 
    225    198150.487 DT     073F Rx 8  19 A3 07 02 03 15 01 80 
    226    198150.726 DT     0740 Rx 8  3F 2C 22 F0 FF 00 08 7F 
    227    198150.962 DT     0741 Rx 8  B5 FD D9 FC 00 00 E4 02 
    228    198151.192 DT     0766 Rx 8  C2 7B FE C6 7E 6C 81 00 
    229    198151.358 DT     0767 Rx 4  B4 7F 00 80 
    230    198151.590 DT     0768 Rx 8  F0 C3 01 B2 8D 0C 8D 00 
    231    198151.753 DT     0769 Rx 4  C7 7F 9E 88 
    232    198151.999 DT     076A Rx 8  FF 7F 00 00 00 00 00 00 
    233    198152.245 DT     076B Rx 8  02 00 00 00 00 00 00 00 
    234    198152.479 DT     076C Rx 8  C2 AF FC 11 75 FF 7F 2C 
    235    198152.645 DT     076D Rx 4  A7 80 00 80 
    236    198152.888 DT     076E Rx 8  C2 3F 03 FF 7F FF 7F 0F 
    237    198153.064 DT     076F Rx 4  E5 7F 00 80 
    238    198153.214 DT     0728 Rx 3  01 1C 00 
    239    198253.849 DT     0700 Rx 8  10 00 00 01 01 00 00 00 
    240    198254.095 DT     0760 Rx 8  00 AE 06 00 00 00 00 00 
    241    198254.335 DT     0727 Rx 8  FE 00 FE 00 FE 00 FE 00 
    242    198254.561 DT     0703 Rx 7  80 FF E1 00 02 00 00 
    243    198254.808 DT     0400 Rx 8  28 07 49 02 00 00 08 00 
    244    198255.040 DT     0401 Rx 8  45 05 05 21 0A 05 5A 06 
    245    198255.280 DT     0402 Rx 8  0F 00 0F 00 06 10 04 03 
    246    198255.524 DT     0403 Rx 8  4F 00 FF 03 00 00 00 00 
    247    198255.776 DT     0410 Rx 8  B2 F8 03 00 00 00 00 00 
    248    198256.021 DT     0411 Rx 8  00 51 CB 5B 00 00 00 00 
    249    198256.265 DT     0412 Rx 8  02 0A 02 06 05 03 00 00 
    250    198256.503 DT     0669 Rx 8  20 30 FB 00 00 23 70 05 
    251    198256.741 DT     0650 Rx 8  40 80 00 00 40 9A A4 EA 
    252    198256.978 DT     0737 Rx 8  50 00 90 20 FF 7F F6 7A 
    253    198257.178 DT     0738 Rx 6  03 B2 00 F2 03 00 
    254    198257.416 DT     0739 Rx 8  18 29 04 30 00 E6 0F 81 
    255    198257.654 DT     073A Rx 8  3F 25 29 F0 FF 00 08 7F 
    256    198257.892 DT     073B Rx 8  52 FE FF 7F 00 00 FE FE 
    257    198258.125 DT     073C Rx 8  14 6E 06 EF 02 87 00 8B 
    258    198258.361 DT     073D Rx 8  3F 21 3C F2 FF 00 08 7F 
    259    198258.601 DT     073E Rx 8  6F FC 12 FE BA 03 B0 03 
    260    198258.837 DT     073F Rx 8  19 CC 07 00 03 15 01 80 
    261    198259.075 DT     0740 Rx 8  3F 2C 23 F0 FF 00 08 7F 
    262    198259.311 DT     0741 Rx 8  B2 FD E7 FC 00 00 DD 02 
    263    198259.542 DT     0766 Rx 8  C2 76 FE C7 7E 6C 81 00 
    264    198259.724 DT     0767 Rx 4  B3 7F 00 80 
    265    198259.954 DT     0768 Rx 8  F2 BF 01 BC 8D 0C 8D 00 
    266    198260.114 DT     0769 Rx 4  C8 7F 1D 88 
    267    198260.361 DT     076A Rx 8  FF 7F 00 00 00 00 00 00 
    268    198260.611 DT     076B Rx 8  02 00 00 00 00 00 00 00 
    269    198260.847 DT     076C Rx 8  C2 AF FC 11 75 FF 7F 2C 
    270    198261.013 DT     076D Rx 4  A7 80 00 80 
    271    198261.255 DT     076E Rx 8  C2 3F 03 FF 7F FF 7F 0F 
    272    198261.426 DT     076F Rx 4  E5 7F 00 80 
    273    198261.586 DT     0728 Rx 3  01 1C 00 
    274    198356.073 DT     0700 Rx 8  10 00 00 01 01 00 00 00 
    275    198356.317 DT     0760 Rx 8  02 AE 06 00 00 00 00 00 
    276    198356.561 DT     0727 Rx 8  FE 00 FE 00 FE 00 FE 00 
    277    198356.783 DT     0703 Rx 7  80 00 00 FF A8 00 23 
    278    198357.029 DT     0400 Rx 8  28 07 49 02 00 00 08 00 
    279    198357.262 DT     0401 Rx 8  45 05 05 21 0A 05 5A 06 
    280    198357.502 DT     0402 Rx 8  0F 00 0F 00 06 10 04 03 
    281    198357.744 DT     0403 Rx 8  4F 00 FF 03 00 00 00 00 
    282    198357.992 DT     0410 Rx 8  B2 F8 03 00 00 00 00 00 
    283    198358.232 DT     0411 Rx 8  00 51 CB 5B 00 00 00 00 
    284    198358.477 DT     0412 Rx 8  02 0A 02 06 05 03 00 00 
    285    198358.723 DT     0669 Rx 8  20 20 FB 00 00 03 70 05 
    286    198358.959 DT     0650 Rx 8  40 80 00 00 40 96 3C CA 
    287    198359.189 DT     0737 Rx 8  4F 00 94 20 FF 7F 5E 7A 
    288    198359.392 DT     0738 Rx 6  03 FD 00 F2 03 00 
    289    198359.626 DT     0739 Rx 8  18 2F 04 31 00 ED 0F 81 
    290    198359.860 DT     073A Rx 8  3F 25 2A F0 FF 00 08 7F 
    291    198360.098 DT     073B Rx 8  C1 FD 3A 00 07 00 FA FE 
    292    198360.334 DT     073C Rx 8  14 79 06 EF 02 85 00 8B 
    293    198360.571 DT     073D Rx 8  3F 21 3D F2 FF 00 08 7F 
    294    198360.807 DT     073E Rx 8  25 FC 45 FE BB 03 A9 03 
    295    198361.047 DT     073F Rx 8  19 DD 07 FF 02 14 01 80 
    296    198361.283 DT     0740 Rx 8  3F 2C 24 F0 FF 00 08 7F 
    297    198361.525 DT     0741 Rx 8  20 FE 70 FD 00 00 D9 02 
    298    198361.756 DT     0766 Rx 8  C2 73 FE C7 7E 6C 81 00 
    299    198361.940 DT     0767 Rx 4  B2 7F 00 80 
    300    198362.166 DT     0768 Rx 8  F0 BC 01 93 8D 4B 8B 12 
    301    198362.328 DT     0769 Rx 4  C9 7F 25 8E 
    302    198362.574 DT     076A Rx 8  FF 7F 00 00 00 00 00 00 
    303    198362.827 DT     076B Rx 8  02 00 00 00 00 00 00 00 
    304    198363.061 DT     076C Rx 8  C2 AF FC 11 75 FF 7F 2C 
    305    198363.227 DT     076D Rx 4  A7 80 00 80 
    306    198363.469 DT     076E Rx 8  C2 3F 03 FF 7F FF 7F 0F 
    307    198363.634 DT     076F Rx 4  E5 7F 00 80 
    308    198363.786 DT     0728 Rx 3  01 1C 00 
    309    198458.228 DT     0700 Rx 8  10 00 00 01 01 00 00 00 
    310    198458.474 DT     0760 Rx 8  02 AE 07 00 00 00 00 00 
    311    198458.718 DT     0727 Rx 8  FE 00 FE 00 FE 00 FE 00 
    312    198458.944 DT     0703 Rx 7  80 FF E2 FF D4 00 10 
    313    198459.190 DT     0400 Rx 8  28 07 49 02 00 00 08 00 
    314    198459.423 DT     0401 Rx 8  45 05 05 21 0A 05 5A 06 
    315    198459.663 DT     0402 Rx 8  0F 00 0F 00 06 10 04 03 
    316    198459.909 DT     0403 Rx 8  4F 00 FF 03 00 00 00 00 
    317    198460.163 DT     0410 Rx 8  B2 F8 03 00 00 00 00 00 
    318    198460.408 DT     0411 Rx 8  00 51 CB 5B 00 00 00 00 
    319    198460.652 DT     0412 Rx 8  02 0A 02 06 05 03 00 00 
    320    198460.890 DT     0669 Rx 8  20 10 FB 00 00 03 50 05 
    321    198461.128 DT     0650 Rx 8  40 80 00 00 40 8B C1 C8 
    322    198461.362 DT     0737 Rx 8  52 FF 8A 20 FF 7F F5 78 
    323    198461.565 DT     0738 Rx 6  03 91 00 F2 03 00 
    324    198461.803 DT     0739 Rx 8  18 2B 04 32 00 E9 0F 81 
    325    198462.041 DT     073A Rx 8  3F 25 2B F0 FF 00 08 7F 
    326    198462.277 DT     073B Rx 8  4D FD 77 00 07 00 F1 FE 
    327    198462.513 DT     073C Rx 8  14 8F 06 EF 02 7F 00 8B 
    328    198462.750 DT     073D Rx 8  3F 21 3E F2 FF 00 08 7F 
    329    198462.988 DT     073E Rx 8  07 FC 88 FE C6 03 9C 03 
    330    198463.232 DT     073F Rx 8  19 00 08 FD 02 0D 01 80 
    331    198463.474 DT     0740 Rx 8  3F 2C 25 F0 FF 00 08 7F 
    332    198463.713 DT     0741 Rx 8  6F FD D2 FD 00 00 D1 02 
    333    198463.943 DT     0766 Rx 8  C2 6E FE C9 7E 6C 81 00 
    334    198464.109 DT     0767 Rx 4  B1 7F 00 80 
    335    198464.337 DT     0768 Rx 8  F0 B4 01 A6 8E 1D 61 11 
    336    198464.499 DT     0769 Rx 4  CB 7F 3F BA 
    337    198464.745 DT     076A Rx 8  FF 7F 00 00 00 00 00 00 
    338    198464.992 DT     076B Rx 8  02 00 00 00 00 00 00 00 
    339    198465.226 DT     076C Rx 8  C2 AF FC 11 75 FF 7F 2C 
    340    198465.394 DT     076D Rx 4  A7 80 00 80 
    341    198465.636 DT     076E Rx 8  C2 3F 03 FF 7F FF 7F 0F 
    342    198465.802 DT     076F Rx 4  E5 7F 00 80 
    343    198465.953 DT     0728 Rx 3  01 1C 00 
    344    198558.636 DT     0700 Rx 8  10 00 00 01 01 00 00 00 
    345    198558.882 DT     0760 Rx 8  02 AE 07 00 00 00 00 00 
    346    198559.128 DT     0727 Rx 8  FE 00 FE 00 FE 00 FE 00 
    347    198559.352 DT     0703 Rx 7  80 FF DF FF D9 FF E9 
    348    198559.598 DT     0400 Rx 8  28 07 49 02 00 00 08 00 
    349    198559.837 DT     0401 Rx 8  45 05 05 21 0A 05 5A 06 
    350    198560.077 DT     0402 Rx 8  0F 00 0F 00 06 10 04 03 
    351    198560.319 DT     0403 Rx 8  4F 00 FF 03 00 00 00 00 
    352    198560.567 DT     0410 Rx 8  B2 F8 03 00 00 00 00 00 
    353    198560.807 DT     0411 Rx 8  00 51 CB 5B 00 00 00 00 
    354    198561.058 DT     0412 Rx 8  02 0A 02 06 05 03 00 00 
    355    198561.300 DT     0669 Rx 8  20 10 FB 00 00 03 40 05 
    356    198561.540 DT     0650 Rx 8  40 80 00 00 40 7A CF E8 
    357    198561.778 DT     0737 Rx 8  3C FF 8B 20 FF 7F 06 77 
    358    198561.981 DT     0738 Rx 6  03 DB 00 F2 03 00 
    359    198562.217 DT     0739 Rx 8  18 28 04 33 00 EA 0F 81 
    360    198562.451 DT     073A Rx 8  3F 25 2C F0 FF 00 08 7F 
    361    198562.685 DT     073B Rx 8  81 FD 63 00 0A 00 ED FE 
    362    198562.921 DT     073C Rx 8  14 98 06 EF 02 7D 00 8B 
    363    198563.160 DT     073D Rx 8  3F 21 3F F2 FF 00 08 7F 
    364    198563.394 DT     073E Rx 8  AC FC 58 FE C8 03 97 03 
    365    198563.630 DT     073F Rx 8  19 11 08 FD 02 0C 01 80 
    366    198563.868 DT     0740 Rx 8  3F 2C 26 F0 FF 00 08 7F 
    367    198564.107 DT     0741 Rx 8  F3 FD F9 FD 00 00 CE 02 
    368    198564.341 DT     0766 Rx 8  C2 6B FE C9 7E 6C 81 00 
    369    198564.507 DT     0767 Rx 4  B1 7F 00 80 
    370    198564.741 DT     0768 Rx 8  F0 B0 01 F2 8F E2 5E 0D 
    371    198564.903 DT     0769 Rx 4  CA 7F 7A AE 
    372    198565.149 DT     076A Rx 8  FF 7F 00 00 00 00 00 00 
    373    198565.396 DT     076B Rx 8  02 00 00 00 00 00 00 00 
    374    198565.630 DT     076C Rx 8  C2 AF FC 11 75 FF 7F 2C 
    375    198565.796 DT     076D Rx 4  A7 80 00 80 
    376    198566.034 DT     076E Rx 8  C1 61 03 FF 7F FF 7F 0D 
    377    198566.205 DT     076F Rx 4  BD 7F 00 80 
    378    198566.355 DT     0728 Rx 3  01 1C 00 
    379    198600.833 DT     0000 Tx 8  00 00 00 00 00 00 00 00 
    380    198600.835 DT     0000 Tx 8  00 00 00 00 00 00 00 00 
    381    198600.835 DT     0000 Tx 8  00 00 00 00 00 00 00 00 
    382    198600.836 DT     0000 Tx 8  00 00 00 00 00 00 00 00 
    383    198600.836 DT     0000 Tx 8  00 00 00 00 00 00 00 00 
    384    198600.836 DT     0000 Tx 8  00 00 00 00 00 00 00 00 
    385    198600.837 DT     0001 Tx 8  00 00 00 00 00 00 00 00 
    386    198600.837 DT     0001 Tx 8  00 00 00 00 00 00 00 00 
    387    198600.838 DT     0001 Tx 8  00 00 00 00 00 00 00 00 
    388    198600.838 DT     0123 Tx 8  11 00 00 00 00 00 00 00 
    389    198600.839 DT     0123 Tx 8  11 00 00 00 00 00 00 00 
    390    198600.839 DT     0123 Tx 8  11 00 00 00 00 00 00 00 
    391    198657.677 DT     0700 Rx 8  10 00 00 01 01 00 00 00 
    392    198657.925 DT     0760 Rx 8  02 AE 08 00 00 00 00 00 
    393    198658.172 DT     0727 Rx 8  FE 00 FE 00 FE 00 FE 00 
    394    198658.394 DT     0703 Rx 7  80 FF FA FF E3 00 22 
    395    198658.640 DT     0400 Rx 8  28 07 49 02 00 00 08 00 
    396    198658.872 DT     0401 Rx 8  45 05 05 21 0A 05 5A 06 
    397    198659.112 DT     0402 Rx 8  0F 00 0F 00 06 10 04 03 
    398    198659.355 DT     0403 Rx 8  4F 00 FF 03 00 00 00 00 
    399    198659.603 DT     0410 Rx 8  B2 F8 03 00 00 00 00 00 
    400    198659.845 DT     0411 Rx 8  00 51 CB 5B 00 00 00 00 
    401    198660.089 DT     0412 Rx 8  02 0A 02 06 05 03 00 00 
    402    198660.342 DT     0669 Rx 8  20 00 FB 00 00 23 40 05 
    403    198660.578 DT     0650 Rx 8  40 80 00 00 40 89 30 F2 
    404    198660.812 DT     0737 Rx 8  3B FF 8C 20 FF 7F 9C 78 
    405    198661.018 DT     0738 Rx 6  03 70 00 F2 03 00 
    406    198661.256 DT     0739 Rx 8  18 25 04 34 00 E7 0F 81 
    407    198661.500 DT     073A Rx 8  3F 25 2D F0 FF 00 08 7F 
    408    198661.735 DT     073B Rx 8  6E FD 77 00 0B 00 E4 FE 
    409    198661.969 DT     073C Rx 8  14 AE 06 F0 02 75 00 8B 
    410    198662.207 DT     073D Rx 8  3F 21 40 F2 FF 00 08 7F 
    411    198662.443 DT     073E Rx 8  56 FC A4 FE CA 03 8A 03 
    412    198662.694 DT     073F Rx 8  19 34 08 FB 02 06 01 80 
    413    198662.934 DT     0740 Rx 8  3F 2C 27 F0 FF 00 08 7F 
    414    198663.174 DT     0741 Rx 8  6A FD F4 FD 00 00 C5 02 
    415    198663.404 DT     0766 Rx 8  C2 64 FE CB 7E 6C 81 00 
    416    198663.570 DT     0767 Rx 4  AF 7F 00 80 
    417    198663.804 DT     0768 Rx 8  F2 AC 01 D1 8F E2 5E 00 
    418    198663.967 DT     0769 Rx 4  CC 7F 56 9F 
    419    198664.213 DT     076A Rx 8  FF 7F 00 00 00 00 00 00 
    420    198664.459 DT     076B Rx 8  02 00 00 00 00 00 00 00 
    421    198664.693 DT     076C Rx 8  C2 AF FC 11 75 FF 7F 2C 
    422    198664.863 DT     076D Rx 4  A7 80 00 80 
    423    198665.102 DT     076E Rx 8  C1 0A 03 FF 7F FF 7F 0D 
    424    198665.272 DT     076F Rx 4  BE 7F 00 80 
    425    198665.422 DT     0728 Rx 3  01 1C 00 
    426    198757.444 DT     0700 Rx 8  10 00 00 01 01 00 00 00 
    427    198757.690 DT     0760 Rx 8  00 AE 08 00 00 00 00 00 
    428    198757.936 DT     0727 Rx 8  FE 00 FE 00 FE 00 FE 00 
    429    198758.161 DT     0703 Rx 7  80 FF EC 00 1E FF FD 
    430    198758.407 DT     0400 Rx 8  28 07 49 02 00 00 08 00 
    431    198758.639 DT     0401 Rx 8  45 05 05 21 0A 05 5A 06 
    432    198758.879 DT     0402 Rx 8  0F 00 0F 00 06 10 04 03 
    433    198759.129 DT     0403 Rx 8  4F 00 FF 03 00 00 00 00 
    434    198759.380 DT     0410 Rx 8  B2 F8 03 00 00 00 00 00 
    435    198759.624 DT     0411 Rx 8  00 51 CB 5B 00 00 00 00 
    436    198759.868 DT     0412 Rx 8  02 0A 02 06 05 03 00 00 
    437    198760.112 DT     0669 Rx 8  20 F0 FA 00 00 03 30 05 
    438    198760.348 DT     0650 Rx 8  40 80 00 00 40 72 AA 5C 
    439    198760.579 DT     0737 Rx 8  4E 00 9C 20 FF 7F 79 76 
    440    198760.781 DT     0738 Rx 6  03 BA 00 F2 03 00 
    441    198761.017 DT     0739 Rx 8  18 1D 04 35 00 E2 0F 81 
    442    198761.251 DT     073A Rx 8  3F 25 2E F0 FF 00 08 7F 
    443    198761.489 DT     073B Rx 8  7E FD B9 00 00 00 E0 FE 
    444    198761.726 DT     073C Rx 8  14 B5 06 F0 02 72 00 8B 
    445    198761.966 DT     073D Rx 8  3F 21 41 F2 FF 00 08 7F 
    446    198762.204 DT     073E Rx 8  8F FC BA FE CB 03 85 03 
    447    198762.442 DT     073F Rx 8  19 44 08 FA 02 06 01 80 
    448    198762.680 DT     0740 Rx 8  3F 2C 28 F0 FF 00 08 7F 
    449    198762.920 DT     0741 Rx 8  16 FE DF FD 00 00 C2 02 
    450    198763.153 DT     0766 Rx 8  C2 60 FE CC 7E 6C 81 00 
    451    198763.319 DT     0767 Rx 4  AF 7F 00 80 
    452    198763.551 DT     0768 Rx 8  F0 A8 01 94 8F 38 5F 0D 
    453    198763.715 DT     0769 Rx 4  CC 7F AA 97 
    454    198763.962 DT     076A Rx 8  FF 7F 00 00 00 00 00 00 
    455    198764.208 DT     076B Rx 8  02 00 00 00 00 00 00 00 
    456    198764.442 DT     076C Rx 8  C2 AF FC 11 75 FF 7F 2C 
    457    198764.608 DT     076D Rx 4  A7 80 00 80 
    458    198764.846 DT     076E Rx 8  C2 0A 03 FF 7F FF 7F 0D 
    459    198765.021 DT     076F Rx 4  BE 7F 00 80 
    460    198765.171 DT     0728 Rx 3  01 1C 00 
    461    198852.820 DT     0700 Rx 8  10 00 00 01 01 00 00 00 
    462    198853.068 DT     0760 Rx 8  00 AE 09 00 00 00 00 00 
    463    198853.308 DT     0727 Rx 8  FE 00 FE 00 FE 00 FE 00 
    464    198853.534 DT     0703 Rx 7  80 FF E9 00 2E 00 1F 
    465    198853.781 DT     0400 Rx 8  28 07 49 02 00 00 08 00 
    466    198854.013 DT     0401 Rx 8  45 05 05 21 0A 05 5A 06 
    467    198854.261 DT     0402 Rx 8  0F 00 0F 00 06 10 04 03 
    468    198854.503 DT     0403 Rx 8  4F 00 FF 03 00 00 00 00 
    469    198854.755 DT     0410 Rx 8  B2 F8 03 00 00 00 00 00 
    470    198854.996 DT     0411 Rx 8  00 51 CB 5B 00 00 00 00 
    471    198855.240 DT     0412 Rx 8  02 0A 02 06 05 03 00 00 
    472    198855.482 DT     0669 Rx 8  20 E0 FA 00 00 03 20 05 
    473    198855.726 DT     0650 Rx 8  40 80 00 00 40 87 7E C4 
    474    198855.958 DT     0737 Rx 8  4E 00 9D 20 FF 7F 62 78 
    475    198856.161 DT     0738 Rx 6  03 05 00 F2 03 00 
    476    198856.395 DT     0739 Rx 8  18 1B 04 35 00 DD 0F 81 
    477    198856.631 DT     073A Rx 8  3F 25 2F F0 FF 00 08 7F 
    478    198856.871 DT     073B Rx 8  02 FD D4 00 01 00 DB FE 
    479    198857.108 DT     073C Rx 8  14 C3 06 F0 02 70 00 8B 
    480    198857.366 DT     073D Rx 8  3F 21 42 F2 FF 00 08 7F 
    481    198857.604 DT     073E Rx 8  C5 FB 9F FE D1 03 7E 03 
    482    198857.840 DT     073F Rx 8  19 5B 08 F7 02 00 01 80 
    483    198858.080 DT     0740 Rx 8  3F 2C 29 F0 FF 00 08 7F 
    484    198858.320 DT     0741 Rx 8  98 05 FF FD FF 03 CB 02 
    485    198858.551 DT     0766 Rx 8  C2 5C FE CC 7E 6C 81 00 
    486    198858.717 DT     0767 Rx 4  AE 7F 00 80 
    487    198858.947 DT     0768 Rx 8  F0 A6 01 78 8F 65 5F 0D 
    488    198859.109 DT     0769 Rx 4  CD 7F 79 97 
    489    198859.355 DT     076A Rx 8  FF 7F 00 00 00 00 00 00 
    490    198859.602 DT     076B Rx 8  02 00 00 00 00 00 00 00 
    491    198859.836 DT     076C Rx 8  C2 AF FC 11 75 FF 7F 2C 
    492    198860.002 DT     076D Rx 4  A7 80 00 80 
    493    198860.242 DT     076E Rx 8  C1 2C 03 FF 7F FF 7F 0D 
    494    198860.406 DT     076F Rx 4  B3 7F 00 80 
    495    198860.557 DT     0728 Rx 3  01 1C 00 
    496    198952.975 DT     0700 Rx 8  10 00 00 01 01 00 00 00 
    497    198953.222 DT     0760 Rx 8  00 AE 09 00 00 00 00 00 
    498    198953.462 DT     0727 Rx 8  FE 00 FE 00 FE 00 FE 00 
    499    198953.686 DT     0703 Rx 7  80 FF F3 00 1B 00 10 
    500    198953.932 DT     0400 Rx 8  28 07 49 02 00 00 08 00 
    501    198954.165 DT     0401 Rx 8  45 05 05 21 0A 05 5A 06 
    502    198954.405 DT     0402 Rx 8  0F 00 0F 00 06 10 04 03 
    503    198954.655 DT     0403 Rx 8  4F 00 FF 03 00 00 00 00 
    504    198954.903 DT     0410 Rx 8  B2 F8 03 00 00 00 00 00 
    505    198955.143 DT     0411 Rx 8  00 51 CB 5B 00 00 00 00 
    506    198955.388 DT     0412 Rx 8  02 0A 02 06 05 03 00 00 
    507    198955.630 DT     0669 Rx 8  20 D0 FA 00 00 03 20 05 
    508    198955.870 DT     0650 Rx 8  40 80 00 00 40 88 D7 E2 
    509    198956.106 DT     0737 Rx 8  4E 00 9E 20 FF 7F 90 78 
    510    198956.307 DT     0738 Rx 6  02 4F 00 F2 03 00 
    511    198956.551 DT     0739 Rx 8  18 15 04 36 00 D9 0F 81 
    512    198956.785 DT     073A Rx 8  3F 25 30 F0 FF 00 08 7F 
    513    198957.023 DT     073B Rx 8  3C FD 0F 01 F8 03 D6 FE 
    514    198957.263 DT     073C Rx 8  14 D7 06 EF 02 7E 00 8B 
    515    198957.507 DT     073D Rx 8  3F 21 43 F2 FF 00 08 7F 
    516    198957.742 DT     073E Rx 8  65 FC 62 FE E8 03 78 03 
    517    198957.972 DT     0766 Rx 8  C2 59 FE CD 7E 6C 81 00 
    518    198958.138 DT     0767 Rx 4  AE 7F 00 80 
    519    198958.372 DT     0768 Rx 8  F0 A3 01 5F 8F 8E 5F 0D 
    520    198958.535 DT     0769 Rx 4  CF 7F 48 97 
    521    198958.787 DT     076A Rx 8  FF 7F 00 00 00 00 00 00 
    522    198959.033 DT     076B Rx 8  02 00 00 00 00 00 00 00 
    523    198959.267 DT     076C Rx 8  C2 AF FC 11 75 FF 7F 2C 
    524    198959.433 DT     076D Rx 4  A7 80 00 80 
    525    198959.678 DT     076E Rx 8  C1 37 03 FF 7F FF 7F 0C 
    526    198959.852 DT     076F Rx 4  AB 7F 00 80 
    527    198960.004 DT     0728 Rx 3  01 1C 00 
    528    199051.282 DT     0700 Rx 8  10 00 00 01 01 00 00 00 
    529    199051.526 DT     0760 Rx 8  02 AE 0A 00 00 00 00 00 
    530    199051.766 DT     0727 Rx 8  FE 00 FE 00 FE 00 FE 00 
    531    199051.986 DT     0703 Rx 7  80 FF 9B 00 8D FF 92 
    532    199052.233 DT     0400 Rx 8  28 07 49 02 00 00 08 00 
    533    199052.465 DT     0401 Rx 8  45 05 05 21 0A 05 5A 06 
    534    199052.705 DT     0402 Rx 8  0F 00 0F 00 06 10 04 03 
    535    199052.955 DT     0403 Rx 8  4F 00 FF 03 00 00 00 00 
    536    199053.208 DT     0410 Rx 8  B2 F8 03 00 00 00 00 00 
    537    199053.452 DT     0411 Rx 8  00 51 CB 5B 00 00 00 00 
    538    199053.696 DT     0412 Rx 8  02 0A 02 06 05 03 00 00 
    539    199053.936 DT     0669 Rx 8  20 C0 FA 00 00 03 10 05 
    540    199054.172 DT     0650 Rx 8  40 80 00 00 40 92 4B 6A 
    541    199054.403 DT     0737 Rx 8  4D 00 A1 20 FF 7F D6 79 
    542    199054.609 DT     0738 Rx 6  02 E4 00 F2 03 00 
    543    199054.847 DT     0739 Rx 8  18 11 04 37 00 DA 0F 81 
    544    199055.083 DT     073A Rx 8  3F 25 31 F2 FF 00 08 7F 
    545    199055.315 DT     073B Rx 8  5C FD D5 00 07 00 CE FE 
    546    199055.552 DT     073C Rx 8  14 F7 06 EE 02 85 00 83 
    547    199055.786 DT     073D Rx 8  3F 21 44 F2 FF 00 08 7F 
    548    199056.024 DT     073E Rx 8  5B FC 15 FE FB 03 6B 03 
    549    199056.256 DT     0766 Rx 8  C2 50 FE CF 7E 6C 81 00 
    550    199056.424 DT     0767 Rx 4  AC 7F 00 80 
    551    199056.656 DT     0768 Rx 8  F0 9E 01 3D 8F F4 5F 0D 
    552    199056.819 DT     0769 Rx 4  D2 7F DA 96 
    553    199057.065 DT     076A Rx 8  FF 7F 00 00 00 00 00 00 
    554    199057.317 DT     076B Rx 8  02 00 00 00 00 00 00 00 
    555    199057.551 DT     076C Rx 8  C2 AF FC 11 75 FF 7F 2C 
    556    199057.718 DT     076D Rx 4  A7 80 00 80 
    557    199057.958 DT     076E Rx 8  C2 37 03 FF 7F FF 7F 0C 
    558    199058.122 DT     076F Rx 4  AB 7F 00 80 
    559    199058.272 DT     0728 Rx 3  01 1C 00 
    560    199100.890 DT     0000 Tx 8  00 00 00 00 00 00 00 00 
    561    199100.893 DT     0000 Tx 8  00 00 00 00 00 00 00 00 
    562    199100.894 DT     0000 Tx 8  00 00 00 00 00 00 00 00 
    563    199100.895 DT     0000 Tx 8  00 00 00 00 00 00 00 00 
    564    199100.897 DT     0000 Tx 8  00 00 00 00 00 00 00 00 
    565    199100.898 DT     0000 Tx 8  00 00 00 00 00 00 00 00 
    566    199100.899 DT     0001 Tx 8  00 00 00 00 00 00 00 00 
    567    199100.899 DT     0001 Tx 8  00 00 00 00 00 00 00 00 
    568    199100.900 DT     0001 Tx 8  00 00 00 00 00 00 00 00 
    569    199100.901 DT     0123 Tx 8  11 00 00 00 00 00 00 00 
    570    199100.902 DT     0123 Tx 8  11 00 00 00 00 00 00 00 
    571    199100.903 DT     0123 Tx 8  11 00 00 00 00 00 00 00 
    572    199145.311 DT     0700 Rx 8  10 00 00 01 01 00 00 00 
    573    199145.555 DT     0760 Rx 8  02 AE 0A 00 00 00 00 00 
    574    199145.795 DT     0727 Rx 8  FE 00 FE 00 FE 00 FE 00 
    575    199146.022 DT     0703 Rx 7  80 00 08 00 3E 00 1B 
    576    199146.268 DT     0400 Rx 8  28 07 49 02 00 00 08 00 
    577    199146.500 DT     0401 Rx 8  45 05 05 21 0A 05 5A 06 
    578    199146.740 DT     0402 Rx 8  0F 00 0F 00 06 10 04 03 
    579    199146.982 DT     0403 Rx 8  4F 00 FF 03 00 00 00 00 
    580    199147.245 DT     0410 Rx 8  B2 F8 03 00 00 00 00 00 
    581    199147.489 DT     0411 Rx 8  00 51 CB 5B 00 00 00 00 
    582    199147.733 DT     0412 Rx 8  02 0A 02 06 05 03 00 00 
    583    199147.973 DT     0669 Rx 8  20 B0 FA 00 00 03 00 05 
    584    199148.215 DT     0650 Rx 8  40 80 00 00 40 91 9D 00 
    585    199148.449 DT     0737 Rx 8  4D 00 A2 20 FF 7F BF 79 
    586    199148.652 DT     0738 Rx 6  02 2E 00 F2 03 00 
    587    199148.892 DT     0739 Rx 8  18 0E 04 38 00 DA 0F 81 
    588    199149.126 DT     073A Rx 8  3F 25 32 F2 FF 00 08 7F 
    589    199149.364 DT     073B Rx 8  0F FD D7 00 08 00 C9 FE 
    590    199149.607 DT     073C Rx 8  14 0C 07 EE 02 94 00 83 
    591    199149.845 DT     073D Rx 8  3F 21 45 F2 FF 00 08 7F 
    592    199150.083 DT     073E Rx 8  38 FA C9 FD 0E 00 62 03 
    593    199150.317 DT     0766 Rx 8  C2 4B FE D0 7E 6C 81 00 
    594    199150.481 DT     0767 Rx 4  AB 7F 00 80 
    595    199150.711 DT     0768 Rx 8  F0 9B 01 22 8F 25 60 0E 
    596    199150.874 DT     0769 Rx 4  D3 7F A3 96 
    597    199151.120 DT     076A Rx 8  FF 7F 00 00 00 00 00 00 
    598    199151.366 DT     076B Rx 8  02 00 00 00 00 00 00 00 
    599    199151.600 DT     076C Rx 8  C2 AF FC 11 75 FF 7F 2C 
    600    199151.766 DT     076D Rx 4  A7 80 00 80 
    601    199152.005 DT     076E Rx 8  C2 37 03 FF 7F FF 7F 0C 
    602    199152.175 DT     076F Rx 4  AB 7F 00 80 
    603    199152.335 DT     0728 Rx 3  01 1C 00 
    604    199245.670 DT     0700 Rx 8  10 00 00 01 01 00 00 00 
    605    199245.916 DT     0760 Rx 8  02 AE 0B 00 00 00 00 00 
    606    199246.156 DT     0727 Rx 8  FE 00 FE 00 FE 00 FE 00 
    607    199246.386 DT     0703 Rx 7  80 FF DC 00 18 FF EB 
    608    199246.637 DT     0400 Rx 8  28 07 49 02 00 00 08 00 
    609    199246.869 DT     0401 Rx 8  45 05 05 21 0A 05 5A 06 
    610    199247.109 DT     0402 Rx 8  0F 00 0F 00 06 10 04 03 
    611    199247.353 DT     0403 Rx 8  4F 00 FF 03 00 00 00 00 
    612    199247.604 DT     0410 Rx 8  B2 F8 03 00 00 00 00 00 
    613    199247.844 DT     0411 Rx 8  00 51 CB 5B 00 00 00 00 
    614    199248.088 DT     0412 Rx 8  02 0A 02 06 05 03 00 00 
    615    199248.330 DT     0669 Rx 8  20 A0 FA 00 00 03 00 05 
    616    199248.568 DT     0650 Rx 8  40 80 00 00 40 99 69 7C 
    617    199248.799 DT     0737 Rx 8  4D 00 A4 20 FF 7F CC 7A 
    618    199249.003 DT     0738 Rx 6  02 78 00 F2 03 00 
    619    199249.237 DT     0739 Rx 8  18 0E 04 39 00 D9 0F 81 
    620    199249.475 DT     073A Rx 8  3F 25 33 F2 FF 00 08 7F 
    621    199249.711 DT     073B Rx 8  40 FC B7 00 0E 00 C2 FE 
    622    199249.950 DT     073C Rx 8  14 21 07 ED 02 A0 00 83 
    623    199250.184 DT     073D Rx 8  3F 21 46 F2 FF 00 08 7F 
    624    199250.424 DT     073E Rx 8  0B FC 97 FD 24 00 5B 03 
    625    199250.654 DT     0766 Rx 8  C2 46 FE D1 7E 6C 81 00 
    626    199250.818 DT     0767 Rx 4  AA 7F 00 80 
    627    199251.055 DT     0768 Rx 8  F0 98 01 15 8F AF 60 0E 
    628    199251.217 DT     0769 Rx 4  D5 7F 66 96 
    629    199251.463 DT     076A Rx 8  FF 7F 00 00 00 00 00 00 
    630    199251.709 DT     076B Rx 8  02 00 00 00 00 00 00 00 
    631    199251.943 DT     076C Rx 8  C2 AF FC 11 75 FF 7F 2C 
    632    199252.110 DT     076D Rx 4  A7 80 00 80 
    633    199252.348 DT     076E Rx 8  C2 37 03 FF 7F FF 7F 0C 
    634    199252.512 DT     076F Rx 4  AB 7F 00 80 
    635    199252.662 DT     0728 Rx 3  01 1C 00 
    636    199342.107 DT     0700 Rx 8  10 00 00 01 01 00 00 00 
    637    199342.353 DT     0760 Rx 8  02 AE 0B 00 00 00 00 00 
    638    199342.594 DT     0727 Rx 8  FE 00 FE 00 FE 00 FE 00 
    639    199342.816 DT     0703 Rx 7  80 FF C8 00 2D FF D6 
    640    199343.062 DT     0400 Rx 8  28 07 49 02 00 00 08 00 
    641    199343.294 DT     0401 Rx 8  45 05 05 21 0A 05 5A 06 
    642    199343.534 DT     0402 Rx 8  0F 00 0F 00 06 10 04 03 
    643    199343.776 DT     0403 Rx 8  4F 00 FF 03 00 00 00 00 
    644    199344.029 DT     0410 Rx 8  B2 F8 03 00 00 00 00 00 
    645    199344.273 DT     0411 Rx 8  00 51 CB 5B 00 00 00 00 
    646    199344.517 DT     0412 Rx 8  02 0A 02 06 05 03 00 00 
    647    199344.757 DT     0669 Rx 8  20 80 FA 00 00 23 F0 04 
    648    199344.995 DT     0650 Rx 8  40 80 00 00 40 9A 35 96 
    649    199345.228 DT     0737 Rx 8  4D 00 A4 20 FF 7F E7 7A 
    650    199345.430 DT     0738 Rx 6  02 0D 00 F2 03 00 
    651    199345.664 DT     0739 Rx 8  18 09 04 3B 00 D9 0F 81 
    652    199345.898 DT     073A Rx 8  3F 25 34 F2 FF 00 08 7F 
    653    199346.130 DT     073B Rx 8  B8 FC 9E 00 0B 00 B8 FE 
    654    199346.371 DT     073C Rx 8  14 3D 07 EF 02 A4 00 83 
    655    199346.609 DT     073D Rx 8  3F 21 47 F2 FF 00 08 7F 
    656    199346.847 DT     073E Rx 8  4D FA FF 7F 23 00 48 03 
    657    199347.081 DT     0766 Rx 8  C2 3C FE D3 7E 6C 81 00 
    658    199347.247 DT     0767 Rx 4  A9 7F 00 80 
    659    199347.480 DT     0768 Rx 8  F2 93 01 EA 8E AF 60 00 
    660    199347.644 DT     0769 Rx 4  D7 7F 21 87 
    661    199347.890 DT     076A Rx 8  FF 7F 00 00 00 00 00 00 
    662    199348.136 DT     076B Rx 8  02 00 00 00 00 00 00 00 
    663    199348.371 DT     076C Rx 8  C2 AF FC 11 75 FF 7F 2C 
    664    199348.539 DT     076D Rx 4  A7 80 00 80 
    665    199348.777 DT     076E Rx 8  C2 37 03 FF 7F FF 7F 0C 
    666    199348.941 DT     076F Rx 4  AB 7F 00 80 
    667    199349.091 DT     0728 Rx 3  01 1C 00 
    668    199439.211 DT     0700 Rx 8  10 00 00 01 01 00 00 00 
    669    199439.457 DT     0760 Rx 8  00 AE 0C 00 00 00 00 00 
    670    199439.697 DT     0727 Rx 8  FE 00 FE 00 FE 00 FE 00 
    671    199439.924 DT     0703 Rx 7  80 FF DA FF EC 00 1D 
    672    199440.176 DT     0400 Rx 8  28 07 49 02 00 00 08 00 
    673    199440.408 DT     0401 Rx 8  45 05 05 21 0A 05 5A 06 
    674    199440.648 DT     0402 Rx 8  0F 00 0F 00 06 10 04 03 
    675    199440.891 DT     0403 Rx 8  4F 00 FF 03 00 00 00 00 
    676    199441.141 DT     0410 Rx 8  B2 F8 03 00 00 00 00 00 
    677    199441.381 DT     0411 Rx 8  00 51 CB 5B 00 00 00 00 
    678    199441.625 DT     0412 Rx 8  02 0A 02 06 05 03 00 00 
    679    199441.867 DT     0669 Rx 8  20 70 FA 00 00 03 E0 04 
    680    199442.103 DT     0650 Rx 8  40 80 00 00 40 97 A8 76 
    681    199442.336 DT     0737 Rx 8  4D 00 A4 20 FF 7F 8F 7A 
    682    199442.538 DT     0738 Rx 6  02 57 00 F2 03 00 
    683    199442.776 DT     0739 Rx 8  18 02 04 3B 00 D0 0F 81 
    684    199443.014 DT     073A Rx 8  3F 25 35 F2 FF 00 08 7F 
    685    199443.250 DT     073B Rx 8  0A FD F9 00 02 00 B3 FE 
    686    199443.491 DT     073C Rx 8  14 4F 07 EB 02 A8 00 83 
    687    199443.725 DT     073D Rx 8  3F 21 48 F2 FF 00 08 7F 
    688    199443.961 DT     073E Rx 8  4F 02 6A FD 2A 00 4C 03 
    689    199444.193 DT     0766 Rx 8  C2 37 FE D4 7E 6C 81 00 
    690    199444.357 DT     0767 Rx 4  A8 7F 00 80 
    691    199444.586 DT     0768 Rx 8  F0 91 01 D1 8E AF 60 15 
    692    199444.748 DT     0769 Rx 4  D8 7F B4 85 
    693    199444.994 DT     076A Rx 8  FF 7F 00 00 00 00 00 00 
    694    199445.240 DT     076B Rx 8  02 00 00 00 00 00 00 00 
    695    199445.474 DT     076C Rx 8  C2 AF FC 11 75 FF 7F 2C 
    696    199445.641 DT     076D Rx 4  A7 80 00 80 
    697    199445.879 DT     076E Rx 8  C2 37 03 FF 7F FF 7F 0C 
    698    199446.043 DT     076F Rx 4  AB 7F 00 80 
    699    199446.193 DT     0728 Rx 3  01 1C 00 
    700    199532.832 DT     0700 Rx 8  10 00 00 01 01 00 00 00 
    701    199533.078 DT     0760 Rx 8  00 AE 0D 00 00 00 00 00 
    702    199533.319 DT     0727 Rx 8  FE 00 FE 00 FE 00 FE 00 
    703    199533.541 DT     0703 Rx 7  80 FF EE 00 31 00 6B 
    704    199533.787 DT     0400 Rx 8  28 07 49 02 00 00 08 00 
    705    199534.019 DT     0401 Rx 8  45 05 05 21 0A 05 5A 06 
    706    199534.267 DT     0402 Rx 8  0F 00 0F 00 06 10 04 03 
    707    199534.518 DT     0403 Rx 8  4F 00 FF 03 00 00 00 00 
    708    199534.770 DT     0410 Rx 8  B2 F8 03 00 00 00 00 00 
    709    199535.014 DT     0411 Rx 8  00 51 CB 5B 00 00 00 00 
    710    199535.258 DT     0412 Rx 8  02 0A 02 06 05 03 00 00 
    711    199535.502 DT     0669 Rx 8  20 60 FA 00 00 02 E0 04 
    712    199535.739 DT     0650 Rx 8  40 80 00 00 40 92 5A 42 
    713    199535.969 DT     0737 Rx 8  4D 00 A4 20 FF 7F D8 79 
    714    199536.173 DT     0738 Rx 6  02 A1 00 F2 03 00 
    715    199536.411 DT     0739 Rx 8  18 FA 03 3C 00 C8 0F 81 
    716    199536.645 DT     073A Rx 8  3F 25 36 F2 FF 00 08 7F 
    717    199536.882 DT     073B Rx 8  22 FC A8 01 FD 03 AC FE 
    718    199537.120 DT     073C Rx 8  14 6B 07 E9 02 BF 00 80 
    719    199537.356 DT     073D Rx 8  3F 21 49 F2 FF 00 08 7F 
    720    199537.590 DT     073E Rx 8  C5 FB B8 FC 51 00 45 03 
    721    199537.822 DT     0766 Rx 8  C2 31 FE D5 7E 6C 81 00 
    722    199538.083 DT     0767 Rx 4  A8 7F 00 80 
    723    199538.315 DT     0768 Rx 8  E0 8E 01 B8 8E AF 60 18 
    724    199538.475 DT     0769 Rx 4  DA 7F 4B 85 
    725    199538.721 DT     076A Rx 8  FF 7F 00 00 00 00 00 00 
    726    199538.967 DT     076B Rx 8  02 00 00 00 00 00 00 00 
    727    199539.202 DT     076C Rx 8  C2 AF FC 11 75 FF 7F 2C 
    728    199539.378 DT     076D Rx 4  A7 80 00 80 
    729    199539.616 DT     076E Rx 8  C2 37 03 FF 7F FF 7F 0C 
    730    199539.780 DT     076F Rx 4  AB 7F 00 80 
    731    199539.930 DT     0728 Rx 3  01 1C 00 
    732    199600.891 DT     0000 Tx 8  00 00 00 00 00 00 00 00 
    733    199600.893 DT     0000 Tx 8  00 00 00 00 00 00 00 00 
    734    199600.893 DT     0000 Tx 8  00 00 00 00 00 00 00 00 
    735    199600.893 DT     0000 Tx 8  00 00 00 00 00 00 00 00 
    736    199600.894 DT     0000 Tx 8  00 00 00 00 00 00 00 00 
    737    199600.894 DT     0000 Tx 8  00 00 00 00 00 00 00 00 
    738    199600.895 DT     0001 Tx 8  00 00 00 00 00 00 00 00 
    739    199600.895 DT     0001 Tx 8  00 00 00 00 00 00 00 00 
    740    199600.895 DT     0001 Tx 8  00 00 00 00 00 00 00 00 
    741    199600.896 DT     0123 Tx 8  11 00 00 00 00 00 00 00 
    742    199600.896 DT     0123 Tx 8  11 00 00 00 00 00 00 00 
    743    199600.897 DT     0123 Tx 8  11 00 00 00 00 00 00 00 
    744    199627.647 DT     0700 Rx 8  10 00 00 01 01 00 00 00 
    745    199627.893 DT     0760 Rx 8  00 AE 0D 00 00 00 00 00 
    746    199628.138 DT     0727 Rx 8  FE 00 FE 00 FE 00 FE 00 
    747    199628.362 DT     0703 Rx 7  80 FF DF FF F3 FF B9 
    748    199628.608 DT     0400 Rx 8  28 07 49 02 00 00 08 00 
    749    199628.840 DT     0401 Rx 8  45 05 05 21 0A 05 5A 06 
    750    199629.080 DT     0402 Rx 8  0F 00 0F 00 06 10 04 03 
    751    199629.323 DT     0403 Rx 8  4F 00 FF 03 00 00 00 00 
    752    199629.579 DT     0410 Rx 8  B2 F8 03 00 00 00 00 00 
    753    199629.819 DT     0411 Rx 8  00 51 CB 5B 00 00 00 00 
    754    199630.063 DT     0412 Rx 8  02 0A 02 06 05 03 00 00 
    755    199630.301 DT     0669 Rx 8  20 30 FA 00 00 01 D0 04 
    756    199630.538 DT     0650 Rx 8  40 80 00 00 40 8B 73 DA 
    757    199630.776 DT     0737 Rx 8  00 80 00 08 FF 7F EA 78 
    758    199630.976 DT     0738 Rx 6  02 36 00 F2 03 00 
    759    199631.214 DT     0739 Rx 8  18 F0 03 3D 00 C4 0F 81 
    760    199631.455 DT     073A Rx 8  3F 25 37 F2 FF 00 08 7F 
    761    199631.685 DT     073B Rx 8  DE FC 2A 02 F7 03 A2 FE 
    762    199631.923 DT     073C Rx 8  14 8B 07 E9 02 C8 00 80 
    763    199632.157 DT     073D Rx 8  3F 21 4A F0 FF 00 08 7F 
    764    199632.393 DT     073E Rx 8  45 FC 9C FC 53 00 39 03 
    765    199632.624 DT     0766 Rx 8  C2 24 FE D8 7E 6C 81 00 
    766    199632.788 DT     0767 Rx 4  A6 7F 00 80 
    767    199633.018 DT     0768 Rx 8  D0 89 01 84 8E AF 60 18 
    768    199633.184 DT     0769 Rx 4  DD 7F 00 80 
    769    199633.430 DT     076A Rx 8  FF 7F 00 00 00 00 00 00 
    770    199633.677 DT     076B Rx 8  02 00 00 00 00 00 00 00 
    771    199633.911 DT     076C Rx 8  C2 AF FC 11 75 FF 7F 2C 
    772    199634.077 DT     076D Rx 4  A7 80 00 80 
    773    199634.315 DT     076E Rx 8  C1 7C 02 FF 7F FF 7F 0D 
    774    199634.479 DT     076F Rx 4  A7 7F 00 80 
    775    199634.630 DT     0728 Rx 3  01 1C 00 
    776    199722.369 DT     0700 Rx 8  10 00 00 01 01 00 00 00 
    777    199722.617 DT     0760 Rx 8  00 AE 0E 00 00 00 00 00 
    778    199722.857 DT     0727 Rx 8  FE 00 FE 00 FE 00 FE 00 
    779    199723.083 DT     0703 Rx 7  80 FF E7 FF F4 00 38 
    780    199723.329 DT     0400 Rx 8  28 07 49 02 00 00 08 00 
    781    199723.562 DT     0401 Rx 8  45 05 05 21 0A 05 5A 06 
    782    199723.810 DT     0402 Rx 8  0F 00 0F 00 06 10 04 03 
    783    199724.056 DT     0403 Rx 8  4F 00 FF 03 00 00 00 00 
    784    199724.304 DT     0410 Rx 8  B2 F8 03 00 00 00 00 00 
    785    199724.544 DT     0411 Rx 8  00 51 CB 5B 00 00 00 00 
    786    199724.789 DT     0412 Rx 8  02 0A 02 06 05 03 00 00 
    787    199725.031 DT     0669 Rx 8  20 20 FA 00 00 20 C0 04 
    788    199725.269 DT     0650 Rx 8  40 80 00 00 40 88 C5 54 
    789    199725.505 DT     0737 Rx 8  00 80 00 08 FF 7F 8E 78 
    790    199725.715 DT     0738 Rx 6  02 80 00 F2 03 00 
    791    199725.956 DT     0739 Rx 8  18 EA 03 3E 00 BE 0F 81 
    792    199726.192 DT     073A Rx 8  3F 25 38 F2 FF 00 08 7F 
    793    199726.426 DT     073B Rx 8  62 FC 0D 02 F5 03 9C FE 
    794    199726.668 DT     073C Rx 8  14 9C 07 E8 02 C8 00 80 
    795    199726.906 DT     073D Rx 8  3F 21 4B F0 FF 00 08 7F 
    796    199727.145 DT     073E Rx 8  22 FC 6B FC 53 00 32 03 
    797    199727.377 DT     0766 Rx 8  C2 1E FE D9 7E 6C 81 00 
    798    199727.541 DT     0767 Rx 4  A5 7F 00 80 
    799    199727.771 DT     0768 Rx 8  C2 87 01 69 8E AF 60 00 
    800    199727.939 DT     0769 Rx 4  DF 7F 00 80 
    801    199728.185 DT     076A Rx 8  FF 7F 00 00 00 00 00 00 
    802    199728.432 DT     076B Rx 8  02 00 00 00 00 00 00 00 
    803    199728.666 DT     076C Rx 8  C2 AF FC 11 75 FF 7F 2C 
    804    199728.832 DT     076D Rx 4  A7 80 00 80 
    805    199729.064 DT     076E Rx 8  C1 91 02 3D 63 FF 7F 0D 
    806    199729.230 DT     076F Rx 4  22 80 00 80 
    807    199729.381 DT     0728 Rx 3  01 1C 00 
    808    199819.081 DT     0700 Rx 8  10 00 00 01 01 00 00 00 
    809    199819.357 DT     0760 Rx 8  02 AE 0E 00 00 00 00 00 
    810    199819.597 DT     0727 Rx 8  FE 00 FE 00 FE 00 FE 00 
    811    199819.821 DT     0703 Rx 7  80 FF F5 FF FE FF D7 
    812    199820.068 DT     0400 Rx 8  28 07 49 02 00 00 08 00 
    813    199820.300 DT     0401 Rx 8  45 05 05 21 0A 05 5A 06 
    814    199820.540 DT     0402 Rx 8  0F 00 0F 00 06 10 04 03 
    815    199820.782 DT     0403 Rx 8  4F 00 FF 03 00 00 00 00 
    816    199821.030 DT     0410 Rx 8  B2 F8 03 00 00 00 00 00 
    817    199821.271 DT     0411 Rx 8  00 51 CB 5B 00 00 00 00 
    818    199821.515 DT     0412 Rx 8  02 0A 02 06 05 03 00 00 
    819    199821.757 DT     0669 Rx 8  20 00 FA 00 00 20 C0 04 
    820    199821.995 DT     0650 Rx 8  40 80 00 00 40 85 46 FE 
    821    199822.233 DT     0737 Rx 8  00 80 00 08 FF 7F 15 78 
    822    199822.436 DT     0738 Rx 6  03 CB 00 F2 03 00 
    823    199822.672 DT     0739 Rx 8  18 E5 03 3E 00 BD 0F 81 
    824    199822.910 DT     073A Rx 8  3F 25 39 F2 FF 00 08 7F 
    825    199823.150 DT     073B Rx 8  3F FD F4 01 F5 03 97 FE 
    826    199823.392 DT     073C Rx 8  14 A5 07 E9 02 C2 00 80 
    827    199823.629 DT     073D Rx 8  3F 21 4C F0 FF 00 08 7F 
    828    199823.893 DT     073E Rx 8  FB FC E8 FC 42 00 2D 03 
    829    199824.129 DT     073F Rx 8  1A 68 09 F2 02 EF 00 40 
    830    199824.375 DT     0740 Rx 8  3F 2C 01 F0 FF 00 08 7F 
    831    199824.616 DT     0741 Rx 8  6A FD FF 7F 01 00 83 02 
    832    199824.850 DT     0766 Rx 8  C2 17 FE DA 7E 6C 81 00 
    833    199825.016 DT     0767 Rx 4  A4 7F 00 80 
    834    199825.246 DT     0768 Rx 8  C2 84 01 4E 8E AF 60 00 
    835    199825.414 DT     0769 Rx 4  E0 7F 00 80 
    836    199825.661 DT     076A Rx 8  FF 7F 00 00 00 00 00 00 
    837    199825.907 DT     076B Rx 8  02 00 00 00 00 00 00 00 
    838    199826.141 DT     076C Rx 8  C2 AF FC 11 75 FF 7F 2C 
    839    199826.307 DT     076D Rx 4  A7 80 00 80 
    840    199826.538 DT     076E Rx 8  C2 91 02 3D 63 FF 7F 0D 
    841    199826.704 DT     076F Rx 4  22 80 00 80 
    842    199826.854 DT     0728 Rx 3  01 1C 00 
    843    199918.011 DT     0700 Rx 8  10 00 00 01 01 00 00 00 
    844    199918.259 DT     0760 Rx 8  02 AE 0F 00 00 00 00 00 
    845    199918.509 DT     0727 Rx 8  FE 00 FE 00 FE 00 FE 00 
    846    199918.733 DT     0703 Rx 7  80 FF F6 FF FB 00 30 
    847    199918.986 DT     0400 Rx 8  28 07 49 02 00 00 08 00 
    848    199919.218 DT     0401 Rx 8  45 05 05 21 0A 05 5A 06 
    849    199919.458 DT     0402 Rx 8  0F 00 0F 00 06 10 04 03 
    850    199919.700 DT     0403 Rx 8  4F 00 FF 03 00 00 00 00 
    851    199919.948 DT     0410 Rx 8  B2 F8 03 00 00 00 00 00 
    852    199920.189 DT     0411 Rx 8  00 51 CB 5B 00 00 00 00 
    853    199920.433 DT     0412 Rx 8  02 0A 02 06 05 03 00 00 
    854    199920.673 DT     0669 Rx 8  20 E0 F9 00 00 20 B0 04 
    855    199920.913 DT     0650 Rx 8  40 80 00 00 40 80 64 68 
    856    199921.149 DT     0737 Rx 8  00 80 00 08 FF 7F 6D 77 
    857    199921.354 DT     0738 Rx 6  03 5F 00 F2 03 00 
    858    199921.588 DT     0739 Rx 8  18 DA 03 3F 00 B3 0F 81 
    859    199921.822 DT     073A Rx 8  3F 25 3A F2 FF 00 08 7F 
    860    199922.056 DT     073B Rx 8  9A FD BA 01 EE 03 8F FE 
    861    199922.350 DT     073C Rx 8  14 C5 07 E6 02 BD 00 80 
    862    199922.590 DT     073D Rx 8  3F 21 4D F0 FF 00 08 7F 
    863    199922.829 DT     073E Rx 8  09 FE 27 FD 31 00 27 03 
    864    199923.069 DT     073F Rx 8  1A 8C 09 F0 02 EA 00 80 
    865    199923.309 DT     0740 Rx 8  3F 2C 02 F0 FF 00 08 7F 
    866    199923.549 DT     0741 Rx 8  51 FE FF 7F 00 00 7E 02 
    867    199923.781 DT     0766 Rx 8  C2 08 FE DC 7E 6C 81 00 
    868    199923.946 DT     0767 Rx 4  A3 7F 00 80 
    869    199924.186 DT     0768 Rx 8  C2 80 01 12 8E AF 60 00 
    870    199924.352 DT     0769 Rx 4  E4 7F 00 80 
    871    199924.598 DT     076A Rx 8  FF 7F 00 00 00 00 00 00 
    872    199924.856 DT     076B Rx 8  02 00 00 00 00 00 00 00 
    873    199925.101 DT     076C Rx 8  C1 EF FC FF 7F FF 7F 1D 
    874    199925.265 DT     076D Rx 4  CF 7F 00 80 
    875    199925.507 DT     076E Rx 8  C1 23 02 FF 7F FF 7F 20 
    876    199925.673 DT     076F Rx 4  CF 7F 00 80 
    877    199925.823 DT     0728 Rx 3  01 1C 00 
    878    200015.662 DT     0700 Rx 8  10 00 00 01 01 00 00 00 
    879    200015.909 DT     0760 Rx 8  00 AE 10 00 00 00 00 00 
    880    200016.149 DT     0727 Rx 8  FE 00 FE 00 FE 00 FE 00 
    881    200016.371 DT     0703 Rx 7  80 FF F5 FF B4 00 16 
    882    200016.617 DT     0400 Rx 8  28 07 49 02 00 00 08 00 
    883    200016.849 DT     0401 Rx 8  45 05 05 21 0A 05 5A 06 
    884    200017.090 DT     0402 Rx 8  0F 00 0F 00 06 10 04 03 
    885    200017.334 DT     0403 Rx 8  4F 00 FF 03 00 00 00 00 
    886    200017.584 DT     0410 Rx 8  B2 F8 03 00 00 00 00 00 
    887    200017.828 DT     0411 Rx 8  00 51 CB 5B 00 00 00 00 
    888    200018.072 DT     0412 Rx 8  02 0A 02 06 05 03 00 00 
    889    200018.315 DT     0669 Rx 8  20 C0 F9 00 00 20 B0 04 
    890    200018.557 DT     0650 Rx 8  40 80 00 00 40 77 FF FC 
    891    200018.795 DT     0737 Rx 8  00 80 00 08 FF 7F D5 76 
    892    200018.995 DT     0738 Rx 6  03 AA 00 F2 03 00 
    893    200019.230 DT     0739 Rx 8  18 D4 03 40 00 AF 0F 81 
    894    200019.466 DT     073A Rx 8  3F 25 3B F2 FF 00 08 7F 
    895    200019.706 DT     073B Rx 8  99 FC 40 01 F0 03 89 FE 
    896    200019.942 DT     073C Rx 8  14 D1 07 E7 02 B9 00 80 
    897    200020.176 DT     073D Rx 8  3F 21 4E F0 FF 00 08 7F 
    898    200020.413 DT     073E Rx 8  E8 FC 96 FD 2E 00 21 03 
    899    200020.645 DT     073F Rx 8  1A 9B 09 EF 02 E5 00 80 
    900    200020.887 DT     0740 Rx 8  3F 2C 03 F0 FF 00 08 7F 
    901    200021.127 DT     0741 Rx 8  F9 FD FF 7F 00 00 7A 02 
    902    200021.361 DT     0766 Rx 8  C2 00 FE DE 7E 6C 81 00 
    903    200021.526 DT     0767 Rx 4  A2 7F 00 80 
    904    200021.762 DT     0768 Rx 8  C2 7E 01 F3 8D AF 60 00 
    905    200021.926 DT     0769 Rx 4  E6 7F 00 80 
    906    200022.180 DT     076A Rx 8  FF 7F 00 00 00 00 00 00 
    907    200022.428 DT     076B Rx 8  02 00 00 00 00 00 00 00 
    908    200022.661 DT     076C Rx 8  C1 A9 FD 67 3E 48 6F 0F 
    909    200022.829 DT     076D Rx 4  FB 80 00 80 
    910    200023.067 DT     076E Rx 8  C2 23 02 FF 7F FF 7F 20 
    911    200023.235 DT     076F Rx 4  CF 7F 00 80 
    912    200023.387 DT     0728 Rx 3  01 1C 00 
    913    200100.899 DT     0000 Tx 8  00 00 00 00 00 00 00 00 
    914    200100.900 DT     0000 Tx 8  00 00 00 00 00 00 00 00 
    915    200100.901 DT     0000 Tx 8  00 00 00 00 00 00 00 00 
    916    200100.901 DT     0000 Tx 8  00 00 00 00 00 00 00 00 
    917    200100.902 DT     0000 Tx 8  00 00 00 00 00 00 00 00 
    918    200100.902 DT     0000 Tx 8  00 00 00 00 00 00 00 00 
    919    200100.903 DT     0001 Tx 8  00 00 00 00 00 00 00 00 
    920    200100.903 DT     0001 Tx 8  00 00 00 00 00 00 00 00 
    921    200100.904 DT     0001 Tx 8  00 00 00 00 00 00 00 00 
    922    200100.904 DT     0123 Tx 8  11 00 00 00 00 00 00 00 
    923    200100.904 DT     0123 Tx 8  11 00 00 00 00 00 00 00 
    924    200100.905 DT     0123 Tx 8  11 00 00 00 00 00 00 00 
    925    200110.418 DT     0700 Rx 8  10 00 00 01 01 00 00 00 
    926    200110.667 DT     0760 Rx 8  00 AE 10 00 00 00 00 00 
    927    200110.907 DT     0727 Rx 8  FE 00 FE 00 FE 00 FE 00 
    928    200111.131 DT     0703 Rx 7  80 00 00 FF CA 00 82 
    929    200111.377 DT     0400 Rx 8  28 07 49 02 00 00 08 00 
    930    200111.609 DT     0401 Rx 8  45 05 05 21 0A 05 5A 06 
    931    200111.850 DT     0402 Rx 8  0F 00 0F 00 06 10 04 03 
    932    200112.100 DT     0403 Rx 8  4F 00 FF 03 00 00 00 00 
    933    200112.352 DT     0410 Rx 8  B2 F8 03 00 00 00 00 00 
    934    200112.596 DT     0411 Rx 8  00 51 CB 5B 00 00 00 00 
    935    200112.840 DT     0412 Rx 8  02 0A 02 06 05 03 00 00 
    936    200113.083 DT     0669 Rx 8  20 A0 F9 00 00 20 A0 04 
    937    200113.321 DT     0650 Rx 8  40 80 00 00 40 73 2F F4 
    938    200113.559 DT     0737 Rx 8  00 80 00 08 FF 7F 82 76 
    939    200113.765 DT     0738 Rx 6  03 F4 00 F2 03 00 
    940    200114.002 DT     0739 Rx 8  18 CD 03 40 00 AF 0F 81 
    941    200114.236 DT     073A Rx 8  3F 25 3C F2 FF 00 08 7F 
    942    200114.470 DT     073B Rx 8  C7 FB 62 01 F2 03 82 FE 
    943    200114.708 DT     073C Rx 8  14 DD 07 E7 02 B4 00 80 
    944    200114.948 DT     073D Rx 8  3F 21 4F F2 FF 00 08 7F 
    945    200115.187 DT     073E Rx 8  9B FC FC FD 24 00 1C 03 
    946    200115.431 DT     073F Rx 8  1A A8 09 F0 02 E4 00 80 
    947    200115.671 DT     0740 Rx 8  3F 2C 04 F0 FF 00 08 7F 
    948    200115.909 DT     0741 Rx 8  16 FD 30 FF FF 03 76 02 
    949    200116.145 DT     0766 Rx 8  C2 F8 FD DF 7E 6C 81 00 
    950    200116.310 DT     0767 Rx 4  A1 7F 00 80 
    951    200116.586 DT     0768 Rx 8  C2 7C 01 D3 8D AF 60 00 
    952    200116.756 DT     0769 Rx 4  E8 7F 00 80 
    953    200117.002 DT     076A Rx 8  FF 7F 00 00 00 00 00 00 
    954    200117.252 DT     076B Rx 8  02 00 00 00 00 00 00 00 
    955    200117.483 DT     076C Rx 8  C2 A9 FD 67 3E 48 6F 0F 
    956    200117.651 DT     076D Rx 4  FB 80 00 80 
    957    200117.889 DT     076E Rx 8  C2 23 02 FF 7F FF 7F 20 
    958    200118.055 DT     076F Rx 4  CF 7F 00 80 
    959    200118.227 DT     0728 Rx 3  01 1C 00 
    960    200205.351 DT     0700 Rx 8  10 00 00 01 01 00 00 00 
    961    200205.598 DT     0760 Rx 8  00 AE 11 00 00 00 00 00 
    962    200205.838 DT     0727 Rx 8  FE 00 FE 00 FE 00 FE 00 
    963    200206.058 DT     0703 Rx 7  80 FF D6 FF FC FF B5 
    964    200206.304 DT     0400 Rx 8  28 07 49 02 00 00 08 00 
    965    200206.536 DT     0401 Rx 8  45 05 05 21 0A 05 5A 06 
    966    200206.777 DT     0402 Rx 8  0F 00 0F 00 06 10 04 03 
    967    200207.019 DT     0403 Rx 8  4F 00 FF 03 00 00 00 00 
    968    200207.269 DT     0410 Rx 8  B2 F8 03 00 00 00 00 00 
    969    200207.509 DT     0411 Rx 8  00 51 CB 5B 00 00 00 00 
    970    200207.753 DT     0412 Rx 8  02 0A 02 06 05 03 00 00 
    971    200207.994 DT     0669 Rx 8  20 90 F9 00 00 20 A0 04 
    972    200208.232 DT     0650 Rx 8  40 80 00 00 40 66 B1 20 
    973    200208.472 DT     0737 Rx 8  00 80 00 08 FF 7F AB 75 
    974    200208.682 DT     0738 Rx 6  03 3E 00 F2 03 00 
    975    200208.924 DT     0739 Rx 8  18 C8 03 41 00 AB 0F 81 
    976    200209.165 DT     073A Rx 8  3F 25 3D F2 FF 00 08 7F 
    977    200209.409 DT     073B Rx 8  D8 FC 39 01 F5 03 7D FE 
    978    200209.647 DT     073C Rx 8  14 E0 07 E8 02 A5 00 80 
    979    200209.883 DT     073D Rx 8  3F 21 50 F2 FF 00 08 7F 
    980    200210.119 DT     073E Rx 8  71 FD 85 FE 14 00 18 03 
    981    200210.360 DT     073F Rx 8  1A B2 09 F0 02 DE 00 80 
    982    200210.608 DT     0740 Rx 8  3F 2C 05 F0 FF 00 08 7F 
    983    200210.844 DT     0741 Rx 8  97 FD D5 FF FF 03 72 02 
    984    200211.088 DT     0766 Rx 8  C2 EF FD E1 7E 6C 81 00 
    985    200211.254 DT     0767 Rx 4  A0 7F 00 80 
    986    200211.485 DT     0768 Rx 8  C2 7A 01 B1 8D AF 60 00 
    987    200211.649 DT     0769 Rx 4  EA 7F 00 80 
    988    200211.895 DT     076A Rx 8  FF 7F 00 00 00 00 00 00 
    989    200212.141 DT     076B Rx 8  02 00 00 00 00 00 00 00 
    990    200212.371 DT     076C Rx 8  C2 A9 FD 67 3E 48 6F 0F 
    991    200212.540 DT     076D Rx 4  FB 80 00 80 
    992    200212.778 DT     076E Rx 8  C2 23 02 FF 7F FF 7F 20 
    993    200212.944 DT     076F Rx 4  CF 7F 00 80 
    994    200213.098 DT     0728 Rx 3  01 1C 00 
    995    200304.407 DT     0700 Rx 8  10 00 00 01 01 00 00 00 
    996    200304.653 DT     0760 Rx 8  00 AE 11 00 00 00 00 00 
    997    200304.903 DT     0727 Rx 8  FE 00 FE 00 FE 00 FE 00 
    998    200305.126 DT     0703 Rx 7  80 FF C5 00 32 FF 87 
    999    200305.372 DT     0400 Rx 8  28 07 49 02 00 00 08 00 
   1000    200305.604 DT     0401 Rx 8  45 05 05 21 0A 05 5A 06 
   1001    200305.844 DT     0402 Rx 8  0F 00 0F 00 06 10 04 03 
   1002    200306.086 DT     0403 Rx 8  4F 00 FF 03 00 00 00 00 
   1003    200306.337 DT     0410 Rx 8  B2 F8 03 00 00 00 00 00 
   1004    200306.577 DT     0411 Rx 8  00 51 CB 5B 00 00 00 00 
   1005    200306.821 DT     0412 Rx 8  02 0A 02 06 05 03 00 00 
   1006    200307.061 DT     0669 Rx 8  20 50 F9 00 00 20 90 04 
   1007    200307.301 DT     0650 Rx 8  40 80 00 00 40 68 3A 7C 
   1008    200307.552 DT     0737 Rx 8  00 80 00 08 FF 7F C5 75 
   1009    200307.752 DT     0738 Rx 6  03 D3 00 F2 03 00 
   1010    200307.988 DT     0739 Rx 8  18 BB 03 42 00 AA 0F 81 
   1011    200308.224 DT     073A Rx 8  3F 25 3E F2 FF 00 08 7F 
   1012    200308.457 DT     073B Rx 8  4A FD 91 01 F5 03 74 FE 
   1013    200308.695 DT     073C Rx 8  14 ED 07 E9 02 98 00 80 
   1014    200308.933 DT     073D Rx 8  3F 21 51 F2 FF 00 08 7F 
   1015    200309.173 DT     073E Rx 8  CD FD EA FE 01 00 10 03 
   1016    200309.407 DT     073F Rx 8  1A D1 09 EF 02 DD 00 80 
   1017    200309.645 DT     0740 Rx 8  3F 2C 06 F0 FF 00 08 7F 
   1018    200309.886 DT     0741 Rx 8  91 FE 02 FF FD 03 6D 02 
   1019    200310.118 DT     0766 Rx 8  C2 DE FD E4 7E 6C 81 00 
   1020    200310.284 DT     0767 Rx 4  9F 7F 00 80 
   1021    200310.516 DT     0768 Rx 8  C2 76 01 6E 8D AF 60 00 
   1022    200310.682 DT     0769 Rx 4  EE 7F 00 80 
   1023    200310.929 DT     076A Rx 8  FF 7F 00 00 00 00 00 00 
   1024    200311.175 DT     076B Rx 8  02 00 00 00 00 00 00 00 
   1025    200311.405 DT     076C Rx 8  C2 A9 FD 67 3E 48 6F 0F 
   1026    200311.573 DT     076D Rx 4  FB 80 00 80 
   1027    200311.811 DT     076E Rx 8  C1 6F 02 FF 7F FF 7F 17 
   1028    200311.980 DT     076F Rx 4  C5 7F 00 80 
   1029    200312.134 DT     0728 Rx 3  01 1C 00 
   1030    200398.023 DT     0700 Rx 8  10 00 00 01 01 00 00 00 
   1031    200398.267 DT     0760 Rx 8  00 AE 12 00 00 00 00 00 
   1032    200398.507 DT     0727 Rx 8  FE 00 FE 00 FE 00 FE 00 
   1033    200398.735 DT     0703 Rx 7  80 00 09 00 37 00 6D 
   1034    200398.988 DT     0400 Rx 8  28 07 49 02 00 00 08 00 
   1035    200399.220 DT     0401 Rx 8  45 05 05 21 0A 05 5A 06 
   1036    200399.460 DT     0402 Rx 8  0F 00 0F 00 06 10 04 03 
   1037    200399.702 DT     0403 Rx 8  4F 00 FF 03 00 00 00 00 
   1038    200399.950 DT     0410 Rx 8  B2 F8 03 00 00 00 00 00 
   1039    200400.191 DT     0411 Rx 8  00 51 CB 5B 00 00 00 00 
   1040    200400.435 DT     0412 Rx 8  02 0A 02 06 05 03 00 00 
   1041    200400.679 DT     0669 Rx 8  20 40 F9 00 00 20 90 04 
   1042    200400.915 DT     0650 Rx 8  40 80 00 00 40 63 B4 AC 
   1043    200401.151 DT     0737 Rx 8  00 80 00 08 FF 7F 77 75 
   1044    200401.353 DT     0738 Rx 6  03 1D 00 F2 03 00 
   1045    200401.592 DT     0739 Rx 8  18 B1 03 42 00 A4 0F 81 
   1046    200401.832 DT     073A Rx 8  3F 25 3F F2 FF 00 08 7F 
   1047    200402.074 DT     073B Rx 8  A1 FC 45 02 F4 03 6F FE 
   1048    200402.312 DT     073C Rx 8  14 F2 07 EA 02 89 00 80 
   1049    200402.546 DT     073D Rx 8  3F 21 52 F2 FF 00 08 7F 
   1050    200402.783 DT     073E Rx 8  B1 FD 5B FF F5 03 0C 03 
   1051    200403.019 DT     073F Rx 8  1A DF 09 EF 02 D9 00 80 
   1052    200403.261 DT     0740 Rx 8  3F 2C 07 F0 FF 00 08 7F 
   1053    200403.499 DT     0741 Rx 8  09 FE 6A FE FF 03 69 02 
   1054    200403.729 DT     0766 Rx 8  C2 D5 FD E6 7E 6C 81 00 
   1055    200403.902 DT     0767 Rx 4  9E 7F 00 80 
   1056    200404.136 DT     0768 Rx 8  C2 75 01 4A 8D AF 60 00 
   1057    200404.302 DT     0769 Rx 4  F0 7F 00 80 
   1058    200404.548 DT     076A Rx 8  FF 7F 00 00 00 00 00 00 
   1059    200404.794 DT     076B Rx 8  02 00 00 00 00 00 00 00 
   1060    200405.025 DT     076C Rx 8  C2 A9 FD 67 3E 48 6F 0F 
   1061    200405.193 DT     076D Rx 4  FB 80 00 80 
   1062    200405.429 DT     076E Rx 8  C1 34 02 FF 7F FF 7F 1D 
   1063    200405.597 DT     076F Rx 4  C5 7F 00 80 
   1064    200405.747 DT     0728 Rx 3  01 1C 00 
   1065    200497.052 DT     0700 Rx 8  10 00 00 01 01 00 00 00 
   1066    200497.296 DT     0760 Rx 8  00 AE 12 00 00 00 00 00 
   1067    200497.537 DT     0727 Rx 8  FE 00 FE 00 FE 00 FE 00 
   1068    200497.767 DT     0703 Rx 7  80 00 02 00 60 00 56 
   1069    200498.017 DT     0400 Rx 8  28 07 49 02 00 00 08 00 
   1070    200498.249 DT     0401 Rx 8  45 05 05 21 0A 05 5A 06 
   1071    200498.490 DT     0402 Rx 8  0F 00 0F 00 06 10 04 03 
   1072    200498.732 DT     0403 Rx 8  4F 00 FF 03 00 00 00 00 
   1073    200498.980 DT     0410 Rx 8  B2 F8 03 00 00 00 00 00 
   1074    200499.220 DT     0411 Rx 8  00 51 CB 5B 00 00 00 00 
   1075    200499.464 DT     0412 Rx 8  02 0A 02 06 05 03 00 00 
   1076    200499.709 DT     0669 Rx 8  20 20 F9 00 00 20 80 04 
   1077    200499.945 DT     0650 Rx 8  40 80 00 00 40 6E 51 14 
   1078    200500.181 DT     0737 Rx 8  00 80 00 08 FF 7F 2E 76 
   1079    200500.385 DT     0738 Rx 6  03 68 00 F2 03 00 
   1080    200500.621 DT     0739 Rx 8  18 AC 03 42 00 A4 0F 81 
   1081    200500.860 DT     073A Rx 8  3F 25 40 F2 FF 00 08 7F 
   1082    200501.096 DT     073B Rx 8  7E FC 12 02 F5 03 69 FE 
   1083    200501.336 DT     073C Rx 8  14 F8 07 EB 02 85 00 80 
   1084    200501.572 DT     073D Rx 8  3F 21 53 F2 FF 00 08 7F 
   1085    200501.814 DT     073E Rx 8  D3 FC 3B FF F2 03 07 03 
   1086    200502.055 DT     073F Rx 8  1A EC 09 F0 02 D8 00 80 
   1087    200502.293 DT     0740 Rx 8  3F 2C 08 F0 FF 00 08 7F 
   1088    200502.529 DT     0741 Rx 8  08 FD 73 FE FE 03 65 02 
   1089    200502.759 DT     0766 Rx 8  C2 CB FD E7 7E 6C 81 00 
   1090    200502.923 DT     0767 Rx 4  9D 7F 00 80 
   1091    200503.156 DT     0768 Rx 8  C2 73 01 27 8D AF 60 00 
   1092    200503.320 DT     0769 Rx 4  F1 7F 00 80 
   1093    200503.566 DT     076A Rx 8  FF 7F 00 00 00 00 00 00 
   1094    200503.812 DT     076B Rx 8  02 00 00 00 00 00 00 00 
   1095    200504.106 DT     076C Rx 8  C2 A9 FD 67 3E 48 6F 0F 
   1096    200504.275 DT     076D Rx 4  FB 80 00 80 
   1097    200504.517 DT     076E Rx 8  C1 5E 02 FF 7F FF 7F 1F 
   1098    200504.681 DT     076F Rx 4  BA 7F 00 80 
   1099    200504.841 DT     0728 Rx 3  01 1C 00 
   1100    200591.540 DT     0700 Rx 8  10 00 00 01 01 00 00 00 
   1101    200591.854 DT     0760 Rx 8  00 AE 13 00 00 00 00 00 
   1102    200592.095 DT     0727 Rx 8  FE 00 FE 00 FE 00 FE 00 
   1103    200592.317 DT     0703 Rx 7  80 00 1C 00 99 00 CC 
   1104    200592.563 DT     0400 Rx 8  28 07 49 02 00 00 08 00 
   1105    200592.795 DT     0401 Rx 8  45 05 05 21 0A 05 5A 06 
   1106    200593.035 DT     0402 Rx 8  0F 00 0F 00 06 10 04 03 
   1107    200593.289 DT     0403 Rx 8  4F 00 FF 03 00 00 00 00 
   1108    200593.537 DT     0410 Rx 8  B2 F8 03 00 00 00 00 00 
   1109    200593.777 DT     0411 Rx 8  00 51 CB 5B 00 00 00 00 
   1110    200594.021 DT     0412 Rx 8  02 0A 02 06 05 03 00 00 
   1111    200594.267 DT     0669 Rx 8  20 E0 F8 00 00 20 80 04 
   1112    200594.507 DT     0650 Rx 8  40 80 00 00 40 89 F5 A0 
   1113    200594.748 DT     0737 Rx 8  00 80 00 08 FF 7F B7 78 
   1114    200594.954 DT     0738 Rx 6  04 FC 00 F2 03 00 
   1115    200595.190 DT     0739 Rx 8  18 A1 03 44 00 A1 0F 81 
   1116    200595.430 DT     073A Rx 8  3F 25 41 F2 FF 00 08 7F 
   1117    200595.669 DT     073B Rx 8  DD FB 18 02 F8 03 5B FE 
   1118    200595.903 DT     073C Rx 8  1B B5 02 71 03 AB 00 43 
   1119    200596.145 DT     073D Rx 8  3F 20 01 F0 FF 00 08 7F 
   1120    200596.387 DT     073E Rx 8  6C 00 FF 7F FE 03 94 04 
   1121    200596.625 DT     073F Rx 8  14 0A 08 EC 02 78 00 80 
   1122    200596.864 DT     0740 Rx 8  3F 21 54 F2 FF 00 08 7F 
   1123    200597.100 DT     0741 Rx 8  E5 FC 57 FF E9 03 FD 02 
   1124    200597.338 DT     0742 Rx 8  1A 0F 0A F0 02 D5 00 80 
   1125    200597.582 DT     0743 Rx 8  3F 2C 09 F0 FF 00 08 7F 
   1126    200597.820 DT     0744 Rx 8  7F FD 69 FE 00 00 5C 02 
   1127    200598.051 DT     0766 Rx 8  C2 B7 FD EB 7E 6C 81 00 
   1128    200598.217 DT     0767 Rx 4  9B 7F 00 80 
   1129    200598.447 DT     0768 Rx 8  C2 71 01 DB 8C AF 60 00 
   1130    200598.613 DT     0769 Rx 4  F6 7F 00 80 
   1131    200598.859 DT     076A Rx 8  FF 7F 00 00 00 00 00 00 
   1132    200599.106 DT     076B Rx 8  02 00 00 00 00 00 00 00 
   1133    200599.336 DT     076C Rx 8  C2 A9 FD 67 3E 48 6F 0F 
   1134    200599.504 DT     076D Rx 4  FB 80 00 80 
   1135    200600.910 DT     0000 Tx 8  00 00 00 00 00 00 00 00 
   1136    200600.911 DT     0000 Tx 8  00 00 00 00 00 00 00 00 
   1137    200600.911 DT     0000 Tx 8  00 00 00 00 00 00 00 00 
   1138    200600.912 DT     0000 Tx 8  00 00 00 00 00 00 00 00 
   1139    200600.912 DT     0000 Tx 8  00 00 00 00 00 00 00 00 
   1140    200600.913 DT     0000 Tx 8  00 00 00 00 00 00 00 00 
   1141    200600.913 DT     0001 Tx 8  00 00 00 00 00 00 00 00 
   1142    200600.913 DT     0001 Tx 8  00 00 00 00 00 00 00 00 
   1143    200600.913 DT     0001 Tx 8  00 00 00 00 00 00 00 00 
   1144    200600.914 DT     0123 Tx 8  11 00 00 00 00 00 00 00 
   1145    200600.914 DT     0123 Tx 8  11 00 00 00 00 00 00 00 
   1146    200600.915 DT     0123 Tx 8  11 00 00 00 00 00 00 00 
   1147    200599.742 DT     076E Rx 8  C1 3D 02 FF 7F FF 7F 28 
   1148    200599.906 DT     076F Rx 4  BA 7F 00 80 
   1149    200600.057 DT     0728 Rx 3  01 1C 00 
   1150    200691.701 DT     0700 Rx 8  10 00 00 01 01 00 00 00 
   1151    200691.945 DT     0760 Rx 8  00 AE 13 00 00 00 00 00 
   1152    200692.185 DT     0727 Rx 8  FE 00 FE 00 FE 00 FE 00 
   1153    200692.406 DT     0703 Rx 7  80 00 CB 00 11 00 C4 
   1154    200692.652 DT     0400 Rx 8  28 07 49 02 00 00 08 00 
   1155    200692.884 DT     0401 Rx 8  45 05 05 21 0A 05 5A 06 
   1156    200693.124 DT     0402 Rx 8  0F 00 0F 00 06 10 04 03 
   1157    200693.374 DT     0403 Rx 8  4F 00 FF 03 00 00 00 00 
   1158    200693.627 DT     0410 Rx 8  B2 F8 03 00 00 00 00 00 
   1159    200693.869 DT     0411 Rx 8  00 51 CB 5B 00 00 00 00 
   1160    200694.113 DT     0412 Rx 8  02 0A 02 06 05 03 00 00 
   1161    200694.361 DT     0669 Rx 8  20 C0 F8 00 00 20 80 04 
   1162    200694.601 DT     0650 Rx 8  40 80 00 00 40 9C 48 40 
   1163    200694.837 DT     0737 Rx 8  00 80 00 08 FF 7F 2F 7B 
   1164    200695.038 DT     0738 Rx 6  04 46 00 F2 03 00 
   1165    200695.274 DT     0739 Rx 8  18 9E 03 44 00 A2 0F 81 
   1166    200695.508 DT     073A Rx 8  3F 25 42 F2 FF 00 08 7F 
   1167    200695.742 DT     073B Rx 8  32 FD AA 01 FA 03 56 FE 
   1168    200695.976 DT     073C Rx 8  1B C8 02 6D 03 A5 00 83 
   1169    200696.217 DT     073D Rx 8  3F 20 02 F0 FF 00 08 7F 
   1170    200696.457 DT     073E Rx 8  AB FF FF 7F F9 03 94 04 
   1171    200696.691 DT     073F Rx 8  14 11 08 EC 02 72 00 80 
   1172    200696.931 DT     0740 Rx 8  3F 21 55 F2 FF 00 08 7F 
   1173    200697.172 DT     0741 Rx 8  31 FE 62 FF E3 03 FA 02 
   1174    200697.404 DT     0742 Rx 8  1A 26 0A EE 02 D6 00 80 
   1175    200697.642 DT     0743 Rx 8  3F 2C 0A F0 FF 00 08 7F 
   1176    200697.882 DT     0744 Rx 8  0F FF 66 FE 00 00 5B 02 
   1177    200698.112 DT     0766 Rx 8  C2 AD FD EC 7E 6C 81 00 
   1178    200698.279 DT     0767 Rx 4  9B 7F 00 80 
   1179    200698.511 DT     0768 Rx 8  C2 70 01 B6 8C AF 60 00 
   1180    200698.679 DT     0769 Rx 4  F8 7F 00 80 
   1181    200698.925 DT     076A Rx 8  FF 7F 00 00 00 00 00 00 
   1182    200699.171 DT     076B Rx 8  02 00 00 00 00 00 00 00 
   1183    200699.402 DT     076C Rx 8  C2 A9 FD 67 3E 48 6F 0F 
   1184    200699.570 DT     076D Rx 4  FB 80 00 80 
   1185    200699.806 DT     076E Rx 8  C2 3D 02 FF 7F FF 7F 28 
   1186    200699.970 DT     076F Rx 4  BA 7F 00 80 
   1187    200700.120 DT     0728 Rx 3  01 1C 00 
   1188    200793.905 DT     0700 Rx 8  10 00 00 01 01 00 00 00 
   1189    200794.151 DT     0760 Rx 8  00 AE 14 00 00 00 00 00 
   1190    200794.392 DT     0727 Rx 8  FE 00 FE 00 FE 00 FE 00 
   1191    200794.616 DT     0703 Rx 7  80 FF B6 00 D1 FF C5 
   1192    200794.862 DT     0400 Rx 8  28 07 49 02 00 00 08 00 
   1193    200795.094 DT     0401 Rx 8  45 05 05 21 0A 05 5A 06 
   1194    200795.334 DT     0402 Rx 8  0F 00 0F 00 06 10 04 03 
   1195    200795.577 DT     0403 Rx 8  4F 00 FF 03 00 00 00 00 
   1196    200795.825 DT     0410 Rx 8  B2 F8 03 00 00 00 00 00 
   1197    200796.065 DT     0411 Rx 8  00 51 CB 5B 00 00 00 00 
   1198    200796.309 DT     0412 Rx 8  02 0A 02 06 05 03 00 00 
   1199    200796.553 DT     0669 Rx 8  20 A0 F8 00 00 20 80 04 
   1200    200796.792 DT     0650 Rx 8  40 80 00 00 40 AC 5B AE 
   1201    200797.032 DT     0737 Rx 8  00 80 00 08 FF 7F 59 7D 
   1202    200797.232 DT     0738 Rx 6  04 91 00 F2 03 00 
   1203    200797.466 DT     0739 Rx 8  18 98 03 45 00 9C 0F 81 
   1204    200797.704 DT     073A Rx 8  3F 25 43 F2 FF 00 08 7F 
   1205    200797.939 DT     073B Rx 8  86 FB 18 02 FA 03 4F FE 
   1206    200798.175 DT     073C Rx 8  1B DA 02 69 03 A0 00 83 
   1207    200798.415 DT     073D Rx 8  3F 21 03 F0 FF 00 08 7F 
   1208    200798.657 DT     073E Rx 8  5C FF FF 7F F7 03 93 04 
   1209    200798.895 DT     073F Rx 8  14 15 08 ED 02 68 00 80 
   1210    200799.138 DT     0740 Rx 8  3F 21 56 F2 FF 00 08 7F 
   1211    200799.378 DT     0741 Rx 8  D4 FD 5F FF DE 03 F6 02 
   1212    200799.612 DT     0742 Rx 8  1A 42 0A EC 02 D6 00 80 
   1213    200799.856 DT     0743 Rx 8  3F 2C 0B F0 FF 00 08 7F 
   1214    200800.097 DT     0744 Rx 8  D7 FE FF 7F 01 00 59 02 
   1215    200800.329 DT     0766 Rx 8  C2 A2 FD EE 7E 6C 81 00 
   1216    200800.493 DT     0767 Rx 4  9A 7F 00 80 
   1217    200800.727 DT     0768 Rx 8  C2 70 01 8E 8C AF 60 00 
   1218    200800.895 DT     0769 Rx 4  FA 7F 00 80 
   1219    200801.142 DT     076A Rx 8  FF 7F 00 00 00 00 00 00 
   1220    200801.388 DT     076B Rx 8  02 00 00 00 00 00 00 00 
   1221    200801.662 DT     076C Rx 8  C2 A9 FD 67 3E 48 6F 0F 
   1222    200801.834 DT     076D Rx 4  FB 80 00 80 
   1223    200802.068 DT     076E Rx 8  C2 3D 02 FF 7F FF 7F 28 
   1224    200802.233 DT     076F Rx 4  BA 7F 00 80 
   1225    200802.383 DT     0728 Rx 3  01 1C 00 
   1226    200900.661 DT     0700 Rx 8  10 00 00 01 01 00 00 00 
   1227    200900.908 DT     0760 Rx 8  00 AE 14 00 00 00 00 00 
   1228    200901.148 DT     0727 Rx 8  FE 00 FE 00 FE 00 FE 00 
   1229    200901.370 DT     0703 Rx 7  80 FF CF 00 2D FF CD 
   1230    200901.616 DT     0400 Rx 8  28 07 49 02 00 00 08 00 
   1231    200901.849 DT     0401 Rx 8  45 05 05 21 0A 05 5A 06 
   1232    200902.089 DT     0402 Rx 8  0F 00 0F 00 06 10 04 03 
   1233    200902.331 DT     0403 Rx 8  4F 00 FF 03 00 00 00 00 
   1234    200902.579 DT     0410 Rx 8  B2 F8 03 00 00 00 00 00 
   1235    200902.819 DT     0411 Rx 8  00 51 CB 5B 00 00 00 00 
   1236    200903.072 DT     0412 Rx 8  02 0A 02 06 05 03 00 00 
   1237    200903.314 DT     0669 Rx 8  20 70 F8 00 00 20 80 04 
   1238    200903.550 DT     0650 Rx 8  40 80 00 00 40 BD AA 8A 
   1239    200903.788 DT     0737 Rx 8  00 80 00 08 FF 7F AE 7F 
   1240    200903.988 DT     0738 Rx 6  04 DB 00 F2 03 00 
   1241    200904.225 DT     0739 Rx 8  18 91 03 46 00 9A 0F 81 
   1242    200904.459 DT     073A Rx 8  3F 25 44 F2 FF 00 08 7F 
   1243    200904.695 DT     073B Rx 8  CE FB 5A 02 F8 03 48 FE 
   1244    200904.935 DT     073C Rx 8  1B ED 02 65 03 A4 00 83 
   1245    200905.171 DT     073D Rx 8  3F 21 04 F0 FF 00 08 7F 
   1246    200905.414 DT     073E Rx 8  0A FF 91 FE F8 03 91 04 
   1247    200905.652 DT     073F Rx 8  14 1E 08 ED 02 67 00 80 
   1248    200905.890 DT     0740 Rx 8  3F 21 57 F2 FF 00 08 7F 
   1249    200906.130 DT     0741 Rx 8  58 FD 48 FF DF 03 F2 02 
   1250    200906.364 DT     0742 Rx 8  1A 5F 0A EB 02 DA 00 80 
   1251    200906.603 DT     0743 Rx 8  3F 2C 0C F0 FF 00 08 7F 
   1252    200906.841 DT     0744 Rx 8  9C FD FF 7F 03 00 55 02 
   1253    200907.075 DT     0766 Rx 8  C2 97 FD F0 7E 6C 81 00 
   1254    200907.239 DT     0767 Rx 4  98 7F 00 80 
   1255    200907.470 DT     0768 Rx 8  C2 6F 01 67 8C AF 60 00 
   1256    200907.636 DT     0769 Rx 4  FC 7F 00 80 
   1257    200907.882 DT     076A Rx 8  FF 7F 00 00 00 00 00 00 
   1258    200908.128 DT     076B Rx 8  02 00 00 00 00 00 00 00 
   1259    200908.358 DT     076C Rx 8  C2 A9 FD 67 3E 48 6F 0F 
   1260    200908.527 DT     076D Rx 4  FB 80 00 80 
   1261    200908.761 DT     076E Rx 8  C2 3D 02 FF 7F FF 7F 28 
   1262    200908.925 DT     076F Rx 4  BA 7F 00 80 
   1263    200909.075 DT     0728 Rx 3  01 1C 00 
   1264    201010.637 DT     0700 Rx 8  10 00 00 01 01 00 00 00 
   1265    201010.891 DT     0760 Rx 8  00 AE 15 00 00 00 00 00 
   1266    201011.131 DT     0727 Rx 8  FE 00 FE 00 FE 00 FE 00 
   1267    201011.353 DT     0703 Rx 7  80 FF DE 00 16 00 23 
   1268    201011.600 DT     0400 Rx 8  28 07 49 02 00 00 08 00 
   1269    201011.832 DT     0401 Rx 8  45 05 05 21 0A 05 5A 06 
   1270    201012.072 DT     0402 Rx 8  0F 00 0F 00 06 10 04 03 
   1271    201012.314 DT     0403 Rx 8  4F 00 FF 03 00 00 00 00 
   1272    201012.562 DT     0410 Rx 8  B2 F8 03 00 00 00 00 00 
   1273    201012.803 DT     0411 Rx 8  00 51 CB 5B 00 00 00 00 
   1274    201013.047 DT     0412 Rx 8  02 0A 02 06 05 03 00 00 
   1275    201013.291 DT     0669 Rx 8  20 30 F8 00 00 20 80 04 
   1276    201013.531 DT     0650 Rx 8  40 80 00 00 40 BB 6F 0E 
   1277    201013.769 DT     0737 Rx 8  00 80 00 08 FF 7F 61 7F 
   1278    201013.972 DT     0738 Rx 6  04 70 00 F2 03 00 
   1279    201014.208 DT     0739 Rx 8  18 84 03 47 00 94 0F 81 
   1280    201014.448 DT     073A Rx 8  3F 26 45 F2 FF 00 08 7F 
   1281    201014.686 DT     073B Rx 8  20 FB 70 02 F7 03 38 FE 
   1282    201014.922 DT     073C Rx 8  1B 0B 03 60 03 A1 00 83 
   1283    201015.163 DT     073D Rx 8  3F 21 05 F0 FF 00 08 7F 
   1284    201015.401 DT     073E Rx 8  9D FE 36 FE F8 03 8C 04 
   1285    201015.633 DT     073F Rx 8  14 2F 08 EF 02 5E 00 80 
   1286    201015.869 DT     0740 Rx 8  3F 21 58 F2 FF 00 08 7F 
   1287    201016.109 DT     0741 Rx 8  99 FC 48 FF DD 03 E6 02 
   1288    201016.342 DT     0742 Rx 8  1A 90 0A EA 02 DB 00 80 
   1289    201016.582 DT     0743 Rx 8  3F 2C 0D F0 FF 00 08 7F 
   1290    201016.818 DT     0744 Rx 8  85 FD FF 7F 05 00 4D 02 
   1291    201017.052 DT     0766 Rx 8  C2 80 FD F4 7E 6C 81 00 
   1292    201017.217 DT     0767 Rx 4  96 7F 00 80 
   1293    201017.453 DT     0768 Rx 8  C2 6F 01 14 8C AF 60 00 
   1294    201017.623 DT     0769 Rx 4  00 80 00 80 
   1295    201017.869 DT     076A Rx 8  FF 7F 00 00 00 00 00 00 
   1296    201018.115 DT     076B Rx 8  02 00 00 00 00 00 00 00 
   1297    201018.356 DT     076C Rx 8  C1 49 FC FF 7F FF 7F 00 
   1298    201018.522 DT     076D Rx 4  ED 7F 00 80 
   1299    201018.756 DT     076E Rx 8  C2 3D 02 FF 7F FF 7F 28 
   1300    201018.920 DT     076F Rx 4  BA 7F 00 80 
   1301    201019.070 DT     0728 Rx 3  01 1C 00 
   1302    201100.829 DT     0000 Tx 8  00 00 00 00 00 00 00 00 
   1303    201100.831 DT     0000 Tx 8  00 00 00 00 00 00 00 00 
   1304    201100.831 DT     0000 Tx 8  00 00 00 00 00 00 00 00 
   1305    201100.832 DT     0000 Tx 8  00 00 00 00 00 00 00 00 
   1306    201100.832 DT     0000 Tx 8  00 00 00 00 00 00 00 00 
   1307    201100.833 DT     0000 Tx 8  00 00 00 00 00 00 00 00 
   1308    201100.833 DT     0001 Tx 8  00 00 00 00 00 00 00 00 
   1309    201100.834 DT     0001 Tx 8  00 00 00 00 00 00 00 00 
   1310    201100.834 DT     0001 Tx 8  00 00 00 00 00 00 00 00 
   1311    201100.835 DT     0123 Tx 8  11 00 00 00 00 00 00 00 
   1312    201100.835 DT     0123 Tx 8  11 00 00 00 00 00 00 00 
   1313    201100.836 DT     0123 Tx 8  11 00 00 00 00 00 00 00 
   1314    201109.987 DT     0700 Rx 8  10 00 00 01 01 00 00 00 
   1315    201110.231 DT     0760 Rx 8  00 AE 15 00 00 00 00 00 
   1316    201110.476 DT     0727 Rx 8  FE 00 FE 00 FE 00 FE 00 
   1317    201110.700 DT     0703 Rx 7  80 FF E1 00 24 00 6E 
   1318    201110.946 DT     0400 Rx 8  28 07 49 02 00 00 08 00 
   1319    201111.178 DT     0401 Rx 8  45 05 05 21 0A 05 5A 06 
   1320    201111.419 DT     0402 Rx 8  0F 00 0F 00 06 10 04 03 
   1321    201111.661 DT     0403 Rx 8  4F 00 FF 03 00 00 00 00 
   1322    201111.909 DT     0410 Rx 8  B2 F8 03 00 00 00 00 00 
   1323    201112.157 DT     0411 Rx 8  00 51 CB 5B 00 00 00 00 
   1324    201112.401 DT     0412 Rx 8  02 0A 02 06 05 03 00 00 
   1325    201112.656 DT     0669 Rx 8  20 10 F8 00 00 20 80 04 
   1326    201112.892 DT     0650 Rx 8  40 80 00 00 40 B9 5C 64 
   1327    201113.134 DT     0737 Rx 8  00 80 00 08 FF 7F 1A 7F 
   1328    201113.334 DT     0738 Rx 6  04 BA 00 F2 03 00 
   1329    201113.578 DT     0739 Rx 8  18 7B 03 48 00 93 0F 81 
   1330    201113.812 DT     073A Rx 8  3F 25 46 F2 FF 00 08 7F 
   1331    201114.047 DT     073B Rx 8  81 FB 6D 02 F6 03 30 FE 
   1332    201114.285 DT     073C Rx 8  1B 11 03 5F 03 9E 00 83 
   1333    201114.525 DT     073D Rx 8  3F 21 06 F0 FF 00 08 7F 
   1334    201114.765 DT     073E Rx 8  2F FE C8 FD F8 03 89 04 
   1335    201115.004 DT     073F Rx 8  14 3A 08 EF 02 60 00 80 
   1336    201115.242 DT     0740 Rx 8  3F 21 59 F2 FF 00 08 7F 
   1337    201115.486 DT     0741 Rx 8  D2 FD 12 FF E1 03 E3 02 
   1338    201115.718 DT     0742 Rx 8  1A A1 0A EC 02 DB 00 80 
   1339    201115.956 DT     0743 Rx 8  3F 2C 0E F0 FF 00 08 7F 
   1340    201116.197 DT     0744 Rx 8  33 FC FF 7F 05 00 46 02 
   1341    201116.429 DT     0766 Rx 8  C2 74 FD F6 7E 6C 81 00 
   1342    201116.593 DT     0767 Rx 4  95 7F 00 80 
   1343    201116.825 DT     0768 Rx 8  C2 6F 01 EA 8B AF 60 00 
   1344    201117.003 DT     0769 Rx 4  02 80 00 80 
   1345    201117.249 DT     076A Rx 8  FF 7F 00 00 00 00 00 00 
   1346    201117.496 DT     076B Rx 8  02 00 00 00 00 00 00 00 
   1347    201117.736 DT     076C Rx 8  C1 33 FC FF 7F FF 7F 13 
   1348    201117.902 DT     076D Rx 4  ED 7F 00 80 
   1349    201118.136 DT     076E Rx 8  C2 3D 02 FF 7F FF 7F 28 
   1350    201118.301 DT     076F Rx 4  BA 7F 00 80 
   1351    201118.453 DT     0728 Rx 3  01 1C 00 
   1352    201213.046 DT     0700 Rx 8  10 00 00 01 01 00 00 00 
   1353    201213.290 DT     0760 Rx 8  00 AE 15 00 00 00 00 00 
   1354    201213.530 DT     0727 Rx 8  FE 00 FE 00 FE 00 FE 00 
   1355    201213.752 DT     0703 Rx 7  80 FF DB 00 5D 00 33 
   1356    201213.998 DT     0400 Rx 8  28 07 49 02 00 00 08 00 
   1357    201214.231 DT     0401 Rx 8  45 05 05 21 0A 05 5A 06 
   1358    201214.471 DT     0402 Rx 8  0F 00 0F 00 06 10 04 03 
   1359    201214.719 DT     0403 Rx 8  4F 00 FF 03 00 00 00 00 
   1360    201214.967 DT     0410 Rx 8  B2 F8 03 00 00 00 00 00 
   1361    201215.207 DT     0411 Rx 8  00 51 CB 5B 00 00 00 00 
   1362    201215.452 DT     0412 Rx 8  02 0A 02 06 05 03 00 00 
   1363    201215.692 DT     0669 Rx 8  20 C0 F7 00 00 20 80 04 
   1364    201215.932 DT     0650 Rx 8  40 80 00 00 40 9F CA 4C 
   1365    201216.168 DT     0737 Rx 8  00 80 00 08 FF 7F A8 7B 
   1366    201216.370 DT     0738 Rx 6  05 4F 00 F2 03 00 
   1367    201216.605 DT     0739 Rx 8  18 71 03 4A 00 98 0F 81 
   1368    201216.843 DT     073A Rx 8  3F 26 47 F2 FF 00 08 7F 
   1369    201217.079 DT     073B Rx 8  BF FA 48 02 FD 03 1F FE 
   1370    201217.317 DT     073C Rx 8  1B 2B 03 5B 03 9F 00 83 
   1371    201217.555 DT     073D Rx 8  3F 21 07 F0 FF 00 08 7F 
   1372    201217.796 DT     073E Rx 8  07 FD 92 FD F9 03 7F 04 
   1373    201218.032 DT     073F Rx 8  1C 59 03 F6 03 A0 0F 41 
   1374    201218.276 DT     0740 Rx 8  3F 36 01 F0 FF 00 08 7F 
   1375    201218.516 DT     0741 Rx 8  DE FC FF 7F EF 03 54 00 
   1376    201218.756 DT     0742 Rx 8  14 52 08 F1 02 66 00 80 
   1377    201218.991 DT     0743 Rx 8  3F 21 5A F2 FF 00 08 7F 
   1378    201219.225 DT     0744 Rx 8  5B FC B2 FE EA 03 D7 02 
   1379    201219.459 DT     0745 Rx 8  1A CE 0A EA 02 E0 00 80 
   1380    201219.699 DT     0746 Rx 8  3F 2C 0F F0 FF 00 08 7F 
   1381    201219.941 DT     0747 Rx 8  1D FD FF 7F 07 00 3D 02 
   1382    201220.174 DT     0766 Rx 8  C2 5C FD FA 7E 6C 81 00 
   1383    201220.340 DT     0767 Rx 4  94 7F 00 80 
   1384    201220.572 DT     0768 Rx 8  C2 70 01 97 8B AF 60 00 
   1385    201220.766 DT     0769 Rx 4  06 80 00 80 
   1386    201221.018 DT     076A Rx 8  FF 7F 00 00 00 00 00 00 
   1387    201221.264 DT     076B Rx 8  02 00 00 00 00 00 00 00 
   1388    201221.535 DT     076C Rx 8  C1 5B FC FF 7F FF 7F 00 
   1389    201221.699 DT     076D Rx 4  E3 7F 00 80 
   1390    201221.933 DT     076E Rx 8  C2 3D 02 FF 7F FF 7F 28 
   1391    201222.111 DT     076F Rx 4  BA 7F 00 80 
   1392    201222.264 DT     0728 Rx 3  01 1C 00 
   1393    201317.971 DT     0700 Rx 8  10 00 00 01 01 00 00 00 
   1394    201318.216 DT     0760 Rx 8  00 AE 15 00 00 00 00 00 
   1395    201318.456 DT     0727 Rx 8  FE 00 FE 00 FE 00 FE 00 
   1396    201318.678 DT     0703 Rx 7  80 FF B1 00 B4 FF 98 
   1397    201318.924 DT     0400 Rx 8  28 07 49 02 00 00 08 00 
   1398    201319.156 DT     0401 Rx 8  45 05 05 21 0A 05 5A 06 
   1399    201319.397 DT     0402 Rx 8  0F 00 0F 00 06 10 04 03 
   1400    201319.641 DT     0403 Rx 8  4F 00 FF 03 00 00 00 00 
   1401    201319.889 DT     0410 Rx 8  B2 F8 03 00 00 00 00 00 
   1402    201320.133 DT     0411 Rx 8  00 51 CB 5B 00 00 00 00 
   1403    201320.377 DT     0412 Rx 8  02 0A 02 06 05 03 00 00 
   1404    201320.620 DT     0669 Rx 8  20 A0 F7 00 00 20 80 04 
   1405    201320.856 DT     0650 Rx 8  40 80 00 00 40 9E 8E DE 
   1406    201321.094 DT     0737 Rx 8  00 80 00 08 FF 7F 7D 7B 
   1407    201321.294 DT     0738 Rx 6  05 99 00 F2 03 00 
   1408    201321.533 DT     0739 Rx 8  1C 53 03 F6 03 9E 0F 81 
   1409    201321.769 DT     073A Rx 8  3F 36 02 F0 FF 00 08 7F 
   1410    201322.003 DT     073B Rx 8  AB FA FF 7F EC 03 4B 00 
   1411    201322.265 DT     073C Rx 8  18 6B 03 4B 00 9A 0F 81 
   1412    201322.499 DT     073D Rx 8  3F 26 48 F2 FF 00 08 7F 
   1413    201322.740 DT     073E Rx 8  AA F9 1F 02 FF 03 14 FE 
   1414    201322.978 DT     073F Rx 8  1B 3C 03 59 03 A1 00 83 
   1415    201323.216 DT     0740 Rx 8  3F 22 08 F0 FF 00 08 7F 
   1416    201323.452 DT     0741 Rx 8  DA FB 53 FD FB 03 79 04 
   1417    201323.682 DT     0742 Rx 8  14 61 08 F1 02 6A 00 80 
   1418    201323.919 DT     0743 Rx 8  3F 21 5B F2 FF 00 08 7F 
   1419    201324.161 DT     0744 Rx 8  F6 FB 7E FE F0 03 D0 02 
   1420    201324.393 DT     0745 Rx 8  1A E8 0A EB 02 E3 00 80 
   1421    201324.631 DT     0746 Rx 8  3F 2C 10 F0 FF 00 08 7F 
   1422    201324.865 DT     0747 Rx 8  5E FC FF 7F 08 00 37 02 
   1423    201325.098 DT     0766 Rx 8  C2 50 FD FC 7E 6C 81 00 
   1424    201325.264 DT     0767 Rx 4  92 7F 00 80 
   1425    201325.496 DT     0768 Rx 8  C2 71 01 6E 8B AF 60 00 
   1426    201325.666 DT     0769 Rx 4  08 80 00 80 
   1427    201325.913 DT     076A Rx 8  FF 7F 00 00 00 00 00 00 
   1428    201326.159 DT     076B Rx 8  02 00 00 00 00 00 00 00 
   1429    201326.397 DT     076C Rx 8  C2 5B FC FF 7F FF 7F 00 
   1430    201326.561 DT     076D Rx 4  E3 7F 00 80 
   1431    201326.797 DT     076E Rx 8  C1 4F 02 FF 7F FF 7F 0E 
   1432    201326.965 DT     076F Rx 4  CF 7F 00 80 
   1433    201327.116 DT     0728 Rx 3  01 1C 00 
   1434    201427.186 DT     0700 Rx 8  10 00 00 01 01 00 00 00 
   1435    201427.430 DT     0760 Rx 8  00 AE 15 00 00 00 00 00 
   1436    201427.671 DT     0727 Rx 8  FE 00 FE 00 FE 00 FE 00 
   1437    201427.895 DT     0703 Rx 7  80 FF B9 00 6A 00 1D 
   1438    201428.141 DT     0400 Rx 8  28 07 49 02 00 00 08 00 
   1439    201428.373 DT     0401 Rx 8  45 05 05 21 0A 05 5A 06 
   1440    201428.614 DT     0402 Rx 8  0F 00 0F 00 06 10 04 03 
   1441    201428.856 DT     0403 Rx 8  4F 00 FF 03 00 00 00 00 
   1442    201429.104 DT     0410 Rx 8  B2 F8 03 00 00 00 00 00 
   1443    201429.344 DT     0411 Rx 8  00 51 CB 5B 00 00 00 00 
   1444    201429.588 DT     0412 Rx 8  02 0A 02 06 05 03 00 00 
   1445    201429.825 DT     0669 Rx 8  20 50 F7 00 00 20 90 04 
   1446    201430.065 DT     0650 Rx 8  40 80 00 00 40 A1 62 80 
   1447    201430.303 DT     0737 Rx 8  00 80 00 08 FF 7F DF 7B 
   1448    201430.503 DT     0738 Rx 6  05 2D 00 F2 03 00 
   1449    201430.738 DT     0739 Rx 8  18 61 03 4D 00 99 0F 81 
   1450    201430.974 DT     073A Rx 8  3F 26 49 F2 FF 00 08 7F 
   1451    201431.208 DT     073B Rx 8  76 FA 28 02 FE 03 02 FE 
   1452    201431.450 DT     073C Rx 8  1C 50 03 F6 03 A2 0F 81 
   1453    201431.690 DT     073D Rx 8  3F 37 03 F0 FF 00 08 7F 
   1454    201431.931 DT     073E Rx 8  82 FE FF 7F FB 03 46 00 
   1455    201432.171 DT     073F Rx 8  1B 5F 03 54 03 A4 00 83 
   1456    201432.413 DT     0740 Rx 8  3F 22 09 F0 FF 00 08 7F 
   1457    201432.651 DT     0741 Rx 8  1E FC 2B FD FA 03 6C 04 
   1458    201432.887 DT     0742 Rx 8  14 7A 08 F2 02 6C 00 80 
   1459    201433.122 DT     0743 Rx 8  3F 21 5C F2 FF 00 08 7F 
   1460    201433.362 DT     0744 Rx 8  F3 FC FF 7F F0 03 C6 02 
   1461    201433.594 DT     0745 Rx 8  1A 1D 0B EB 02 EA 00 80 
   1462    201433.838 DT     0746 Rx 8  3F 2C 11 F0 FF 00 08 7F 
   1463    201434.078 DT     0747 Rx 8  22 FD FF 7F 0A 00 2D 02 
   1464    201434.311 DT     0766 Rx 8  C2 37 FD 00 7F 6C 81 00 
   1465    201434.483 DT     0767 Rx 4  90 7F 00 80 
   1466    201434.713 DT     0768 Rx 8  C2 74 01 1B 8B AF 60 00 
   1467    201434.883 DT     0769 Rx 4  0B 80 00 80 
   1468    201435.129 DT     076A Rx 8  FF 7F 00 00 00 00 00 00 
   1469    201435.375 DT     076B Rx 8  02 00 00 00 00 00 00 00 
   1470    201435.620 DT     076C Rx 8  C1 F1 FC FF 7F FF 7F 00 
   1471    201435.784 DT     076D Rx 4  D9 7F 00 80 
   1472    201436.022 DT     076E Rx 8  C1 08 05 FF 7F FF 7F 00 
   1473    201436.186 DT     076F Rx 4  D9 7F 00 80 
   1474    201436.336 DT     0728 Rx 3  01 1C 00 
   1475    201536.044 DT     0700 Rx 8  10 00 00 01 01 00 00 00 
   1476    201536.288 DT     0760 Rx 8  00 AE 15 00 00 00 00 00 
   1477    201536.531 DT     0727 Rx 8  FE 00 FE 00 FE 00 FE 00 
   1478    201536.759 DT     0703 Rx 7  80 FF ED FF FC 00 B6 
   1479    201537.005 DT     0400 Rx 8  28 07 49 02 00 00 08 00 
   1480    201537.237 DT     0401 Rx 8  45 05 05 21 0A 05 5A 06 
   1481    201537.477 DT     0402 Rx 8  0F 00 0F 00 06 10 04 03 
   1482    201537.734 DT     0403 Rx 8  4F 00 FF 03 00 00 00 00 
   1483    201537.982 DT     0410 Rx 8  B2 F8 03 00 00 00 00 00 
   1484    201538.222 DT     0411 Rx 8  00 51 CB 5B 00 00 00 00 
   1485    201538.466 DT     0412 Rx 8  02 0A 02 06 05 03 00 00 
   1486    201538.706 DT     0669 Rx 8  20 20 F7 00 00 20 90 04 
   1487    201538.945 DT     0650 Rx 8  40 80 00 00 40 AD 24 12 
   1488    201539.185 DT     0737 Rx 8  00 80 00 08 FF 7F 74 7D 
   1489    201539.389 DT     0738 Rx 6  05 78 00 F2 03 00 
   1490    201539.623 DT     0739 Rx 8  18 5C 03 4E 00 99 0F 81 
   1491    201539.858 DT     073A Rx 8  3F 26 4A F2 FF 00 08 7F 
   1492    201540.094 DT     073B Rx 8  8D F9 3A 02 FF 03 F7 FD 
   1493    201540.332 DT     073C Rx 8  1C 4E 03 F7 03 A2 0F 81 
   1494    201540.568 DT     073D Rx 8  3F 37 04 F0 FF 00 08 7F 
   1495    201540.810 DT     073E Rx 8  1E FC 89 00 FC 03 40 00 
   1496    201541.046 DT     073F Rx 8  1B 6E 03 52 03 A5 00 83 
   1497    201541.287 DT     0740 Rx 8  3F 22 0A F0 FF 00 08 7F 
   1498    201541.525 DT     0741 Rx 8  A5 FB F3 FC FA 03 64 04 
   1499    201541.755 DT     0742 Rx 8  14 87 08 F3 02 6D 00 80 
   1500    201541.993 DT     0743 Rx 8  3F 21 5D F2 FF 00 08 7F 
   1501    201542.233 DT     0744 Rx 8  4F FC FF 7F F2 03 C0 02 
   1502    201542.474 DT     0745 Rx 8  1A 24 0B EE 02 E8 00 80 
   1503    201542.716 DT     0746 Rx 8  3F 2C 12 F0 FF 00 08 7F 
   1504    201542.952 DT     0747 Rx 8  DE FB FF 7F 09 00 26 02 
   1505    201543.184 DT     0766 Rx 8  C2 2B FD 02 7F 6C 81 00 
   1506    201543.348 DT     0767 Rx 4  8F 7F 00 80 
   1507    201543.581 DT     0768 Rx 8  C2 75 01 F1 8A AF 60 00 
   1508    201543.751 DT     0769 Rx 4  0C 80 00 80 
   1509    201543.997 DT     076A Rx 8  FF 7F 00 00 00 00 00 00 
   1510    201544.243 DT     076B Rx 8  02 00 00 00 00 00 00 00 
   1511    201544.558 DT     076C Rx 8  C2 F1 FC FF 7F FF 7F 00 
   1512    201544.730 DT     076D Rx 4  D9 7F 00 80 
   1513    201544.970 DT     076E Rx 8  C2 08 05 FF 7F FF 7F 00 
   1514    201545.138 DT     076F Rx 4  D9 7F 00 80 
   1515    201545.296 DT     0728 Rx 3  01 1C 00 
   1516    201600.713 DT     0000 Tx 8  00 00 00 00 00 00 00 00 
   1517    201600.714 DT     0000 Tx 8  00 00 00 00 00 00 00 00 
   1518    201600.714 DT     0000 Tx 8  00 00 00 00 00 00 00 00 
   1519    201600.714 DT     0000 Tx 8  00 00 00 00 00 00 00 00 
   1520    201600.714 DT     0000 Tx 8  00 00 00 00 00 00 00 00 
   1521    201600.715 DT     0000 Tx 8  00 00 00 00 00 00 00 00 
   1522    201600.715 DT     0001 Tx 8  00 00 00 00 00 00 00 00 
   1523    201600.715 DT     0001 Tx 8  00 00 00 00 00 00 00 00 
   1524    201600.715 DT     0001 Tx 8  00 00 00 00 00 00 00 00 
   1525    201600.715 DT     0123 Tx 8  11 00 00 00 00 00 00 00 
   1526    201600.716 DT     0123 Tx 8  11 00 00 00 00 00 00 00 
   1527    201600.716 DT     0123 Tx 8  11 00 00 00 00 00 00 00 
   1528    201637.009 DT     0700 Rx 8  10 00 00 01 01 00 00 00 
   1529    201637.255 DT     0760 Rx 8  00 AE 15 00 00 00 00 00 
   1530    201637.496 DT     0727 Rx 8  FE 00 FE 00 FE 00 FE 00 
   1531    201637.724 DT     0703 Rx 7  80 FF E5 FF 42 00 6D 
   1532    201637.970 DT     0400 Rx 8  28 07 49 02 00 00 08 00 
   1533    201638.202 DT     0401 Rx 8  45 05 05 21 0A 05 5A 06 
   1534    201638.444 DT     0402 Rx 8  0F 00 0F 00 06 10 04 03 
   1535    201638.687 DT     0403 Rx 8  4F 00 FF 03 00 00 00 00 
   1536    201638.935 DT     0410 Rx 8  B2 F8 03 00 00 00 00 00 
   1537    201639.175 DT     0411 Rx 8  00 51 CB 5B 00 00 00 00 
   1538    201639.419 DT     0412 Rx 8  02 0A 02 06 05 03 00 00 
   1539    201639.657 DT     0669 Rx 8  20 00 F7 00 00 20 90 04 
   1540    201639.896 DT     0650 Rx 8  40 80 00 00 40 B4 81 3A 
   1541    201640.134 DT     0737 Rx 8  00 80 00 08 FF 7F 72 7E 
   1542    201640.334 DT     0738 Rx 6  05 C2 00 F2 03 00 
   1543    201640.568 DT     0739 Rx 8  18 50 03 4F 00 97 0F 81 
   1544    201640.807 DT     073A Rx 8  3F 26 4B F2 FF 00 08 7F 
   1545    201641.043 DT     073B Rx 8  B8 F8 B7 02 FD 03 EB FD 
   1546    201641.281 DT     073C Rx 8  1C 4A 03 F8 03 A2 0F 81 
   1547    201641.521 DT     073D Rx 8  3F 37 05 F0 FF 00 08 7F 
   1548    201641.757 DT     073E Rx 8  F5 FC E6 00 FB 03 3B 00 
   1549    201641.994 DT     073F Rx 8  1B 6F 03 53 03 A3 00 83 
   1550    201642.236 DT     0740 Rx 8  3F 22 0B F0 FF 00 08 7F 
   1551    201642.474 DT     0741 Rx 8  70 FB C0 FC FA 03 5D 04 
   1552    201642.706 DT     0742 Rx 8  14 92 08 F5 02 6D 00 80 
   1553    201642.940 DT     0743 Rx 8  3F 21 5E F2 FF 00 08 7F 
   1554    201643.181 DT     0744 Rx 8  11 FB FF 7F F3 03 B7 02 
   1555    201643.419 DT     0745 Rx 8  1A 24 0B F0 02 E4 00 80 
   1556    201643.659 DT     0746 Rx 8  3F 2C 13 F0 FF 00 08 7F 
   1557    201643.897 DT     0747 Rx 8  9E FC FF 7F 07 00 21 02 
   1558    201644.132 DT     0766 Rx 8  C2 1E FD 04 7F 6C 81 00 
   1559    201644.300 DT     0767 Rx 4  8D 7F 00 80 
   1560    201644.530 DT     0768 Rx 8  C2 77 01 C8 8A AF 60 00 
   1561    201644.706 DT     0769 Rx 4  0E 80 00 80 
   1562    201645.026 DT     076A Rx 8  FF 7F 00 00 00 00 00 00 
   1563    201645.279 DT     076B Rx 8  02 00 00 00 00 00 00 00 
   1564    201645.523 DT     076C Rx 8  C2 F1 FC FF 7F FF 7F 00 
   1565    201645.687 DT     076D Rx 4  D9 7F 00 80 
   1566    201645.927 DT     076E Rx 8  C2 08 05 FF 7F FF 7F 00 
   1567    201646.092 DT     076F Rx 4  D9 7F 00 80 
   1568    201646.242 DT     0728 Rx 3  01 1C 00 
   1569    201746.728 DT     0700 Rx 8  10 00 00 01 01 00 00 00 
   1570    201746.972 DT     0760 Rx 8  00 AE 15 00 00 00 00 00 
   1571    201747.217 DT     0727 Rx 8  FE 00 FE 00 FE 00 FE 00 
   1572    201747.435 DT     0703 Rx 7  80 FF DA FE D6 00 8E 
   1573    201747.681 DT     0400 Rx 8  28 07 49 02 00 00 08 00 
